ZPLOT2 ASCII
  Measured Data, VersaStudio:   2.60.6.0
  Experiment Type:            Sweep Frequency, Control Voltage
  Date:                       8-16-2020
  Time:                       15:23:1
  Open Circuit Potential (V): 0
  Begin User Comments:        0
  End User Comments:          0
  Begin Experiment:           0
  End Experiment:             0
  Begin Pstat/Gstat:          VersaSTAT3
  End Pstat/Gstat:            VersaSTAT3
  Begin Analyzer:             0
  End Analyzer:               0
  Begin Information:          Cell Information
    Surface Area:             1
    Density:                  0
    Weight:                   0
    Polarity:                 0
    PolarityI:                0
    Corrosion Unit Type:      0
    Reference Type:           0
    Reference Potential:      0
    User-Defined Potential:   0
    Stern-Geary:              26
  End Information:            Cell Information
  Null Configuration:         0,3,0,1,100000,0.1
  Data Points:                56
  Freq(Hz)	Ampl	Bias	Time(Sec)	Z'(a)	Z''(b)	GD	Err	Range
End Comments
1.000000E+04	0.0000E+00	0.0000E+00	5.481000E+00	7.4660E-02	2.6565E-02	0.0000E+00	0	2
7.943282E+03	0.0000E+00	0.0000E+00	6.042000E+00	7.4023E-02	2.0860E-02	0.0000E+00	0	2
6.309573E+03	0.0000E+00	0.0000E+00	6.323000E+00	7.3502E-02	1.6487E-02	0.0000E+00	0	2
5.011873E+03	0.0000E+00	0.0000E+00	6.590000E+00	7.3104E-02	1.2703E-02	0.0000E+00	0	2
3.981072E+03	0.0000E+00	0.0000E+00	6.855000E+00	7.3205E-02	9.8565E-03	0.0000E+00	0	2
3.162278E+03	0.0000E+00	0.0000E+00	7.137000E+00	7.3110E-02	7.4582E-03	0.0000E+00	0	2
2.511886E+03	0.0000E+00	0.0000E+00	7.405000E+00	7.3158E-02	5.2032E-03	0.0000E+00	0	2
1.995262E+03	0.0000E+00	0.0000E+00	7.665000E+00	7.3557E-02	3.6029E-03	0.0000E+00	0	2
1.584893E+03	0.0000E+00	0.0000E+00	7.941000E+00	7.3990E-02	2.2429E-03	0.0000E+00	0	2
1.258925E+03	0.0000E+00	0.0000E+00	8.224000E+00	7.4104E-02	9.1930E-04	0.0000E+00	0	2
1.000000E+03	0.0000E+00	0.0000E+00	8.513000E+00	7.5085E-02	6.4317E-05	0.0000E+00	0	2
6.309573E+02	0.0000E+00	0.0000E+00	9.093000E+00	7.5935E-02	-1.5260E-03	0.0000E+00	0	2
5.011872E+02	0.0000E+00	0.0000E+00	9.419000E+00	7.6088E-02	-2.0955E-03	0.0000E+00	0	2
3.981072E+02	0.0000E+00	0.0000E+00	9.715000E+00	7.6396E-02	-2.6119E-03	0.0000E+00	0	2
3.162278E+02	0.0000E+00	0.0000E+00	9.990000E+00	7.7427E-02	-3.2029E-03	0.0000E+00	0	2
2.511886E+02	0.0000E+00	0.0000E+00	1.036100E+01	7.7194E-02	-3.1119E-03	0.0000E+00	0	2
1.995262E+02	0.0000E+00	0.0000E+00	1.065400E+01	7.8509E-02	-3.4485E-03	0.0000E+00	0	2
1.584893E+02	0.0000E+00	0.0000E+00	1.096200E+01	7.8991E-02	-3.6929E-03	0.0000E+00	0	2
1.258925E+02	0.0000E+00	0.0000E+00	1.135200E+01	7.9991E-02	-4.1163E-03	0.0000E+00	0	2
6.309573E+01	0.0000E+00	0.0000E+00	1.247500E+01	8.1234E-02	-4.3322E-03	0.0000E+00	0	2
5.011872E+01	0.0000E+00	0.0000E+00	1.285800E+01	8.1923E-02	-4.6896E-03	0.0000E+00	0	2
3.981072E+01	0.0000E+00	0.0000E+00	1.327400E+01	8.2814E-02	-4.9848E-03	0.0000E+00	0	2
3.162278E+01	0.0000E+00	0.0000E+00	1.362500E+01	8.3800E-02	-5.3902E-03	0.0000E+00	0	2
2.511886E+01	0.0000E+00	0.0000E+00	1.400600E+01	8.4705E-02	-5.1633E-03	0.0000E+00	0	2
1.995262E+01	0.0000E+00	0.0000E+00	1.442600E+01	8.5129E-02	-5.4920E-03	0.0000E+00	0	2
1.584893E+01	0.0000E+00	0.0000E+00	1.488600E+01	8.5224E-02	-5.8288E-03	0.0000E+00	0	2
1.258925E+01	0.0000E+00	0.0000E+00	1.540900E+01	8.6011E-02	-6.4143E-03	0.0000E+00	0	2
1.000000E+01	0.0000E+00	0.0000E+00	1.600700E+01	8.6492E-02	-7.0916E-03	0.0000E+00	0	2
6.309574E+00	0.0000E+00	0.0000E+00	1.750300E+01	8.8103E-02	-9.0792E-03	0.0000E+00	0	2
5.011872E+00	0.0000E+00	0.0000E+00	1.845800E+01	8.8497E-02	-1.0343E-02	0.0000E+00	0	2
3.981072E+00	0.0000E+00	0.0000E+00	1.960100E+01	8.9948E-02	-1.2206E-02	0.0000E+00	0	2
3.162278E+00	0.0000E+00	0.0000E+00	2.098300E+01	9.1725E-02	-1.4713E-02	0.0000E+00	0	2
2.511886E+00	0.0000E+00	0.0000E+00	2.265800E+01	9.3139E-02	-1.6611E-02	0.0000E+00	0	2
1.995262E+00	0.0000E+00	0.0000E+00	2.470000E+01	9.6137E-02	-1.9427E-02	0.0000E+00	0	2
1.584893E+00	0.0000E+00	0.0000E+00	2.720700E+01	9.9409E-02	-2.1900E-02	0.0000E+00	0	2
1.258925E+00	0.0000E+00	0.0000E+00	3.030900E+01	1.0394E-01	-2.3430E-02	0.0000E+00	0	2
1.000000E+00	0.0000E+00	0.0000E+00	3.421500E+01	1.0870E-01	-2.5097E-02	0.0000E+00	0	2
7.943282E-01	0.0000E+00	0.0000E+00	3.904700E+01	1.1404E-01	-2.5517E-02	0.0000E+00	0	2
6.309574E-01	0.0000E+00	0.0000E+00	4.504900E+01	1.1919E-01	-2.5725E-02	0.0000E+00	0	2
5.011872E-01	0.0000E+00	0.0000E+00	5.250400E+01	1.2434E-01	-2.4294E-02	0.0000E+00	0	2
3.981072E-01	0.0000E+00	0.0000E+00	6.180900E+01	1.2873E-01	-2.2465E-02	0.0000E+00	0	2
3.162278E-01	0.0000E+00	0.0000E+00	7.343300E+01	1.3211E-01	-2.0672E-02	0.0000E+00	0	2
2.511886E-01	0.0000E+00	0.0000E+00	8.797600E+01	1.3521E-01	-1.8164E-02	0.0000E+00	0	2
1.995262E-01	0.0000E+00	0.0000E+00	1.061970E+02	1.3751E-01	-1.5950E-02	0.0000E+00	0	2
1.584893E-01	0.0000E+00	0.0000E+00	1.290500E+02	1.3939E-01	-1.4109E-02	0.0000E+00	0	2
1.258925E-01	0.0000E+00	0.0000E+00	1.577310E+02	1.4050E-01	-1.2113E-02	0.0000E+00	0	2
1.000000E-01	0.0000E+00	0.0000E+00	1.941480E+02	1.4142E-01	-1.0907E-02	0.0000E+00	0	2
7.943282E-02	0.0000E+00	0.0000E+00	2.398030E+02	1.4216E-01	-1.0293E-02	0.0000E+00	0	2
6.309573E-02	0.0000E+00	0.0000E+00	2.970870E+02	1.4329E-01	-1.0120E-02	0.0000E+00	0	2
5.011872E-02	0.0000E+00	0.0000E+00	3.690070E+02	1.4380E-01	-1.0307E-02	0.0000E+00	0	2
3.162277E-02	0.0000E+00	0.0000E+00	5.729170E+02	1.4482E-01	-1.0619E-02	0.0000E+00	0	2
2.511887E-02	0.0000E+00	0.0000E+00	7.156850E+02	1.4602E-01	-1.1628E-02	0.0000E+00	0	2
1.995262E-02	0.0000E+00	0.0000E+00	8.952310E+02	1.4652E-01	-1.2942E-02	0.0000E+00	0	2
1.584893E-02	0.0000E+00	0.0000E+00	1.121073E+03	1.4822E-01	-1.5076E-02	0.0000E+00	0	2
1.258925E-02	0.0000E+00	0.0000E+00	1.405195E+03	1.4968E-01	-1.6530E-02	0.0000E+00	0	2
1.000000E-02	0.0000E+00	0.0000E+00	1.763194E+03	1.5174E-01	-1.9215E-02	0.0000E+00	0	2
