ZPLOT2 ASCII
  Measured Data, VersaStudio:   2.60.6.0
  Experiment Type:            Sweep Frequency, Control Voltage
  Date:                       8-16-2020
  Time:                       19:34:7
  Open Circuit Potential (V): 0
  Begin User Comments:        0
  End User Comments:          0
  Begin Experiment:           0
  End Experiment:             0
  Begin Pstat/Gstat:          VersaSTAT3
  End Pstat/Gstat:            VersaSTAT3
  Begin Analyzer:             0
  End Analyzer:               0
  Begin Information:          Cell Information
    Surface Area:             1
    Density:                  0
    Weight:                   0
    Polarity:                 0
    PolarityI:                0
    Corrosion Unit Type:      0
    Reference Type:           0
    Reference Potential:      0
    User-Defined Potential:   0
    Stern-Geary:              26
  End Information:            Cell Information
  Null Configuration:         0,3,0,1,100000,0.1
  Data Points:                53
  Freq(Hz)	Ampl	Bias	Time(Sec)	Z'(a)	Z''(b)	GD	Err	Range
End Comments
1.000000E+04	0.0000E+00	0.0000E+00	5.483000E+00	7.4590E-02	2.6622E-02	0.0000E+00	0	2
7.943282E+03	0.0000E+00	0.0000E+00	5.924000E+00	7.3971E-02	2.0846E-02	0.0000E+00	0	2
6.309573E+03	0.0000E+00	0.0000E+00	6.207000E+00	7.3533E-02	1.6708E-02	0.0000E+00	0	2
5.011873E+03	0.0000E+00	0.0000E+00	6.479000E+00	7.3321E-02	1.2695E-02	0.0000E+00	0	2
3.981072E+03	0.0000E+00	0.0000E+00	6.740000E+00	7.3159E-02	9.7627E-03	0.0000E+00	0	2
3.162278E+03	0.0000E+00	0.0000E+00	7.025000E+00	7.3241E-02	7.1723E-03	0.0000E+00	0	2
2.511886E+03	0.0000E+00	0.0000E+00	7.295000E+00	7.3331E-02	5.2106E-03	0.0000E+00	0	2
1.995262E+03	0.0000E+00	0.0000E+00	7.552000E+00	7.3566E-02	3.4712E-03	0.0000E+00	0	2
1.584893E+03	0.0000E+00	0.0000E+00	7.830000E+00	7.3813E-02	2.1449E-03	0.0000E+00	0	2
1.258925E+03	0.0000E+00	0.0000E+00	8.108000E+00	7.4380E-02	9.5633E-04	0.0000E+00	0	2
7.943282E+02	0.0000E+00	0.0000E+00	8.693000E+00	7.5178E-02	-6.6162E-04	0.0000E+00	0	2
6.309573E+02	0.0000E+00	0.0000E+00	8.971000E+00	7.6213E-02	-1.5873E-03	0.0000E+00	0	2
3.981072E+02	0.0000E+00	0.0000E+00	9.591000E+00	7.7183E-02	-3.0908E-03	0.0000E+00	0	2
1.995262E+02	0.0000E+00	0.0000E+00	1.053000E+01	7.8221E-02	-3.6868E-03	0.0000E+00	0	2
1.584893E+02	0.0000E+00	0.0000E+00	1.083900E+01	7.8182E-02	-3.7072E-03	0.0000E+00	0	2
1.258925E+02	0.0000E+00	0.0000E+00	1.122900E+01	7.9776E-02	-3.8517E-03	0.0000E+00	0	2
1.000000E+02	0.0000E+00	0.0000E+00	1.157500E+01	8.0770E-02	-4.2611E-03	0.0000E+00	0	2
7.943282E+01	0.0000E+00	0.0000E+00	1.199900E+01	8.1180E-02	-4.5591E-03	0.0000E+00	0	2
5.011872E+01	0.0000E+00	0.0000E+00	1.273000E+01	8.2086E-02	-4.8047E-03	0.0000E+00	0	2
3.981072E+01	0.0000E+00	0.0000E+00	1.315000E+01	8.2916E-02	-4.5778E-03	0.0000E+00	0	2
3.162278E+01	0.0000E+00	0.0000E+00	1.350000E+01	8.3456E-02	-4.8911E-03	0.0000E+00	0	2
2.511886E+01	0.0000E+00	0.0000E+00	1.387800E+01	8.4329E-02	-5.0766E-03	0.0000E+00	0	2
1.995262E+01	0.0000E+00	0.0000E+00	1.430000E+01	8.5134E-02	-5.3517E-03	0.0000E+00	0	2
1.584893E+01	0.0000E+00	0.0000E+00	1.476200E+01	8.5988E-02	-6.0912E-03	0.0000E+00	0	2
1.258925E+01	0.0000E+00	0.0000E+00	1.528700E+01	8.6418E-02	-6.4333E-03	0.0000E+00	0	2
1.000000E+01	0.0000E+00	0.0000E+00	1.588300E+01	8.7454E-02	-7.0675E-03	0.0000E+00	0	2
7.943282E+00	0.0000E+00	0.0000E+00	1.657200E+01	8.7737E-02	-7.6860E-03	0.0000E+00	0	2
6.309574E+00	0.0000E+00	0.0000E+00	1.737600E+01	8.8129E-02	-8.9599E-03	0.0000E+00	0	2
5.011872E+00	0.0000E+00	0.0000E+00	1.833400E+01	8.9365E-02	-1.1122E-02	0.0000E+00	0	2
3.981072E+00	0.0000E+00	0.0000E+00	1.947700E+01	9.0445E-02	-1.2771E-02	0.0000E+00	0	2
3.162278E+00	0.0000E+00	0.0000E+00	2.085700E+01	9.1910E-02	-1.5046E-02	0.0000E+00	0	2
2.511886E+00	0.0000E+00	0.0000E+00	2.253100E+01	9.3766E-02	-1.7535E-02	0.0000E+00	0	2
1.995262E+00	0.0000E+00	0.0000E+00	2.457400E+01	9.6348E-02	-2.0308E-02	0.0000E+00	0	2
1.584893E+00	0.0000E+00	0.0000E+00	2.708500E+01	1.0029E-01	-2.2557E-02	0.0000E+00	0	2
1.258925E+00	0.0000E+00	0.0000E+00	3.018400E+01	1.0437E-01	-2.4901E-02	0.0000E+00	0	2
1.000000E+00	0.0000E+00	0.0000E+00	3.409400E+01	1.0936E-01	-2.6670E-02	0.0000E+00	0	2
7.943282E-01	0.0000E+00	0.0000E+00	3.892400E+01	1.1554E-01	-2.8109E-02	0.0000E+00	0	2
6.309574E-01	0.0000E+00	0.0000E+00	4.491800E+01	1.2118E-01	-2.7232E-02	0.0000E+00	0	2
5.011872E-01	0.0000E+00	0.0000E+00	5.237400E+01	1.2649E-01	-2.6536E-02	0.0000E+00	0	2
3.981072E-01	0.0000E+00	0.0000E+00	6.167700E+01	1.3114E-01	-2.4334E-02	0.0000E+00	0	2
3.162278E-01	0.0000E+00	0.0000E+00	7.330200E+01	1.3522E-01	-2.2356E-02	0.0000E+00	0	2
2.511886E-01	0.0000E+00	0.0000E+00	8.784300E+01	1.3900E-01	-1.9807E-02	0.0000E+00	0	2
1.995262E-01	0.0000E+00	0.0000E+00	1.060640E+02	1.4124E-01	-1.6812E-02	0.0000E+00	0	2
1.584893E-01	0.0000E+00	0.0000E+00	1.289160E+02	1.4306E-01	-1.5413E-02	0.0000E+00	0	2
1.258925E-01	0.0000E+00	0.0000E+00	1.576010E+02	1.4479E-01	-1.3280E-02	0.0000E+00	0	2
1.000000E-01	0.0000E+00	0.0000E+00	1.940170E+02	1.4520E-01	-1.2120E-02	0.0000E+00	0	2
6.309573E-02	0.0000E+00	0.0000E+00	2.969600E+02	1.4667E-01	-1.0477E-02	0.0000E+00	0	2
5.011872E-02	0.0000E+00	0.0000E+00	3.688830E+02	1.4776E-01	-9.9735E-03	0.0000E+00	0	2
3.981072E-02	0.0000E+00	0.0000E+00	4.592360E+02	1.4889E-01	-1.0463E-02	0.0000E+00	0	2
2.511887E-02	0.0000E+00	0.0000E+00	7.155650E+02	1.5088E-01	-1.1855E-02	0.0000E+00	0	2
1.584893E-02	0.0000E+00	0.0000E+00	1.120945E+03	1.5288E-01	-1.4969E-02	0.0000E+00	0	2
1.258925E-02	0.0000E+00	0.0000E+00	1.405067E+03	1.5387E-01	-1.6783E-02	0.0000E+00	0	2
1.000000E-02	0.0000E+00	0.0000E+00	1.763073E+03	1.5579E-01	-1.9314E-02	0.0000E+00	0	2
