ZPLOT2 ASCII
  Measured Data, VersaStudio:   2.60.6.0
  Experiment Type:            Sweep Frequency, Control Voltage
  Date:                       8-16-2020
  Time:                       15:48:37
  Open Circuit Potential (V): 0
  Begin User Comments:        0
  End User Comments:          0
  Begin Experiment:           0
  End Experiment:             0
  Begin Pstat/Gstat:          VersaSTAT3
  End Pstat/Gstat:            VersaSTAT3
  Begin Analyzer:             0
  End Analyzer:               0
  Begin Information:          Cell Information
    Surface Area:             1
    Density:                  0
    Weight:                   0
    Polarity:                 0
    PolarityI:                0
    Corrosion Unit Type:      0
    Reference Type:           0
    Reference Potential:      0
    User-Defined Potential:   0
    Stern-Geary:              26
  End Information:            Cell Information
  Null Configuration:         0,3,0,1,100000,0.1
  Data Points:                60
  Freq(Hz)	Ampl	Bias	Time(Sec)	Z'(a)	Z''(b)	GD	Err	Range
End Comments
1.000000E+04	0.0000E+00	0.0000E+00	5.493000E+00	7.4700E-02	2.6971E-02	0.0000E+00	0	2
7.943282E+03	0.0000E+00	0.0000E+00	6.176000E+00	7.3872E-02	2.1010E-02	0.0000E+00	0	2
6.309573E+03	0.0000E+00	0.0000E+00	6.458000E+00	7.3496E-02	1.6786E-02	0.0000E+00	0	2
5.011873E+03	0.0000E+00	0.0000E+00	6.726000E+00	7.3193E-02	1.3037E-02	0.0000E+00	0	2
3.981072E+03	0.0000E+00	0.0000E+00	6.991000E+00	7.3062E-02	9.9148E-03	0.0000E+00	0	2
3.162278E+03	0.0000E+00	0.0000E+00	7.276000E+00	7.3147E-02	7.6424E-03	0.0000E+00	0	2
2.511886E+03	0.0000E+00	0.0000E+00	7.547000E+00	7.3224E-02	5.5057E-03	0.0000E+00	0	2
1.995262E+03	0.0000E+00	0.0000E+00	7.805000E+00	7.3378E-02	3.8598E-03	0.0000E+00	0	2
1.584893E+03	0.0000E+00	0.0000E+00	8.083000E+00	7.3645E-02	2.3299E-03	0.0000E+00	0	2
1.258925E+03	0.0000E+00	0.0000E+00	8.426000E+00	7.4023E-02	1.1408E-03	0.0000E+00	0	2
1.000000E+03	0.0000E+00	0.0000E+00	8.717000E+00	7.4622E-02	2.2490E-04	0.0000E+00	0	2
7.943282E+02	0.0000E+00	0.0000E+00	9.017000E+00	7.4816E-02	-1.1879E-03	0.0000E+00	0	2
5.011872E+02	0.0000E+00	0.0000E+00	9.624000E+00	7.5394E-02	-1.9931E-03	0.0000E+00	0	2
3.981072E+02	0.0000E+00	0.0000E+00	9.921000E+00	7.6179E-02	-2.4540E-03	0.0000E+00	0	2
3.162278E+02	0.0000E+00	0.0000E+00	1.019700E+01	7.6725E-02	-2.8529E-03	0.0000E+00	0	2
2.511886E+02	0.0000E+00	0.0000E+00	1.056500E+01	7.7430E-02	-3.2433E-03	0.0000E+00	0	2
1.995262E+02	0.0000E+00	0.0000E+00	1.086400E+01	7.7935E-02	-3.6049E-03	0.0000E+00	0	2
1.584893E+02	0.0000E+00	0.0000E+00	1.116800E+01	7.8372E-02	-3.8389E-03	0.0000E+00	0	2
1.258925E+02	0.0000E+00	0.0000E+00	1.155200E+01	7.9192E-02	-4.1680E-03	0.0000E+00	0	2
1.000000E+02	0.0000E+00	0.0000E+00	1.190100E+01	7.9674E-02	-4.3790E-03	0.0000E+00	0	2
7.943282E+01	0.0000E+00	0.0000E+00	1.232000E+01	8.0412E-02	-4.3704E-03	0.0000E+00	0	2
6.309573E+01	0.0000E+00	0.0000E+00	1.267300E+01	8.1136E-02	-4.6072E-03	0.0000E+00	0	2
5.011872E+01	0.0000E+00	0.0000E+00	1.305600E+01	8.2131E-02	-4.8311E-03	0.0000E+00	0	2
3.981072E+01	0.0000E+00	0.0000E+00	1.347500E+01	8.2729E-02	-4.9137E-03	0.0000E+00	0	2
3.162278E+01	0.0000E+00	0.0000E+00	1.382700E+01	8.3501E-02	-5.1692E-03	0.0000E+00	0	2
2.511886E+01	0.0000E+00	0.0000E+00	1.420900E+01	8.3984E-02	-5.4217E-03	0.0000E+00	0	2
1.995262E+01	0.0000E+00	0.0000E+00	1.462400E+01	8.4296E-02	-5.5361E-03	0.0000E+00	0	2
1.584893E+01	0.0000E+00	0.0000E+00	1.508600E+01	8.5514E-02	-6.2519E-03	0.0000E+00	0	2
1.258925E+01	0.0000E+00	0.0000E+00	1.560900E+01	8.5936E-02	-6.5974E-03	0.0000E+00	0	2
1.000000E+01	0.0000E+00	0.0000E+00	1.620800E+01	8.6418E-02	-7.0073E-03	0.0000E+00	0	2
7.943282E+00	0.0000E+00	0.0000E+00	1.689400E+01	8.7020E-02	-7.9949E-03	0.0000E+00	0	2
6.309574E+00	0.0000E+00	0.0000E+00	1.770100E+01	8.7616E-02	-9.1091E-03	0.0000E+00	0	2
5.011872E+00	0.0000E+00	0.0000E+00	1.865900E+01	8.8432E-02	-1.0663E-02	0.0000E+00	0	2
3.981072E+00	0.0000E+00	0.0000E+00	1.980100E+01	9.0005E-02	-1.2311E-02	0.0000E+00	0	2
3.162278E+00	0.0000E+00	0.0000E+00	2.118100E+01	9.1475E-02	-1.4460E-02	0.0000E+00	0	2
2.511886E+00	0.0000E+00	0.0000E+00	2.285400E+01	9.3441E-02	-1.6780E-02	0.0000E+00	0	2
1.995262E+00	0.0000E+00	0.0000E+00	2.489000E+01	9.5922E-02	-1.9069E-02	0.0000E+00	0	2
1.584893E+00	0.0000E+00	0.0000E+00	2.740300E+01	9.9938E-02	-2.1527E-02	0.0000E+00	0	2
1.258925E+00	0.0000E+00	0.0000E+00	3.050600E+01	1.0373E-01	-2.3654E-02	0.0000E+00	0	2
1.000000E+00	0.0000E+00	0.0000E+00	3.441800E+01	1.0870E-01	-2.5497E-02	0.0000E+00	0	2
7.943282E-01	0.0000E+00	0.0000E+00	3.924900E+01	1.1408E-01	-2.6296E-02	0.0000E+00	0	2
6.309574E-01	0.0000E+00	0.0000E+00	4.524500E+01	1.1939E-01	-2.5936E-02	0.0000E+00	0	2
5.011872E-01	0.0000E+00	0.0000E+00	5.270000E+01	1.2447E-01	-2.4624E-02	0.0000E+00	0	2
3.981072E-01	0.0000E+00	0.0000E+00	6.200300E+01	1.2920E-01	-2.3230E-02	0.0000E+00	0	2
3.162278E-01	0.0000E+00	0.0000E+00	7.362200E+01	1.3297E-01	-2.0827E-02	0.0000E+00	0	2
2.511886E-01	0.0000E+00	0.0000E+00	8.816400E+01	1.3567E-01	-1.8258E-02	0.0000E+00	0	2
1.995262E-01	0.0000E+00	0.0000E+00	1.063820E+02	1.3806E-01	-1.6315E-02	0.0000E+00	0	2
1.584893E-01	0.0000E+00	0.0000E+00	1.292310E+02	1.3990E-01	-1.4323E-02	0.0000E+00	0	2
1.258925E-01	0.0000E+00	0.0000E+00	1.579110E+02	1.4089E-01	-1.2543E-02	0.0000E+00	0	2
1.000000E-01	0.0000E+00	0.0000E+00	1.943310E+02	1.4209E-01	-1.1323E-02	0.0000E+00	0	2
7.943282E-02	0.0000E+00	0.0000E+00	2.399860E+02	1.4293E-01	-1.0547E-02	0.0000E+00	0	2
6.309573E-02	0.0000E+00	0.0000E+00	2.972710E+02	1.4368E-01	-1.0134E-02	0.0000E+00	0	2
5.011872E-02	0.0000E+00	0.0000E+00	3.691980E+02	1.4454E-01	-9.6529E-03	0.0000E+00	0	2
3.981072E-02	0.0000E+00	0.0000E+00	4.595480E+02	1.4537E-01	-9.9938E-03	0.0000E+00	0	2
3.162277E-02	0.0000E+00	0.0000E+00	5.731060E+02	1.4572E-01	-1.0650E-02	0.0000E+00	0	2
2.511887E-02	0.0000E+00	0.0000E+00	7.158750E+02	1.4652E-01	-1.1571E-02	0.0000E+00	0	2
1.995262E-02	0.0000E+00	0.0000E+00	8.954240E+02	1.4770E-01	-1.3181E-02	0.0000E+00	0	2
1.584893E-02	0.0000E+00	0.0000E+00	1.121265E+03	1.4903E-01	-1.4589E-02	0.0000E+00	0	2
1.258925E-02	0.0000E+00	0.0000E+00	1.405391E+03	1.5114E-01	-1.7009E-02	0.0000E+00	0	2
1.000000E-02	0.0000E+00	0.0000E+00	1.763389E+03	1.5285E-01	-1.9014E-02	0.0000E+00	0	2
