ZPLOT2 ASCII
  Measured Data, VersaStudio:   2.60.6.0
  Experiment Type:            Sweep Frequency, Control Voltage
  Date:                       8-20-2020
  Time:                       11:25:8
  Open Circuit Potential (V): 0
  Begin User Comments:        0
  End User Comments:          0
  Begin Experiment:           0
  End Experiment:             0
  Begin Pstat/Gstat:          VersaSTAT3
  End Pstat/Gstat:            VersaSTAT3
  Begin Analyzer:             0
  End Analyzer:               0
  Begin Information:          Cell Information
    Surface Area:             1
    Density:                  0
    Weight:                   0
    Polarity:                 0
    PolarityI:                0
    Corrosion Unit Type:      0
    Reference Type:           0
    Reference Potential:      0
    User-Defined Potential:   0
    Stern-Geary:              26
  End Information:            Cell Information
  Null Configuration:         0,3,0,1,100000,0.1
  Data Points:                60
  Freq(Hz)	Ampl	Bias	Time(Sec)	Z'(a)	Z''(b)	GD	Err	Range
End Comments
1.000000E+04	0.0000E+00	0.0000E+00	5.507000E+00	6.6049E-02	2.4805E-02	0.0000E+00	0	2
7.943282E+03	0.0000E+00	0.0000E+00	6.731000E+00	6.5405E-02	1.9690E-02	0.0000E+00	0	2
6.309573E+03	0.0000E+00	0.0000E+00	7.020000E+00	6.4851E-02	1.5592E-02	0.0000E+00	0	2
5.011873E+03	0.0000E+00	0.0000E+00	7.293000E+00	6.4645E-02	1.2248E-02	0.0000E+00	0	2
3.981072E+03	0.0000E+00	0.0000E+00	7.563000E+00	6.4466E-02	9.4372E-03	0.0000E+00	0	2
3.162278E+03	0.0000E+00	0.0000E+00	7.851000E+00	6.4553E-02	7.1818E-03	0.0000E+00	0	2
2.511886E+03	0.0000E+00	0.0000E+00	8.127000E+00	6.4571E-02	4.9700E-03	0.0000E+00	0	2
1.995262E+03	0.0000E+00	0.0000E+00	8.392000E+00	6.4791E-02	3.4262E-03	0.0000E+00	0	2
1.584893E+03	0.0000E+00	0.0000E+00	8.800000E+00	6.5128E-02	2.0238E-03	0.0000E+00	0	2
1.258925E+03	0.0000E+00	0.0000E+00	9.215000E+00	6.5494E-02	7.8408E-04	0.0000E+00	0	2
1.000000E+03	0.0000E+00	0.0000E+00	9.510000E+00	6.6043E-02	-2.8811E-04	0.0000E+00	0	2
7.943282E+02	0.0000E+00	0.0000E+00	9.816000E+00	6.6238E-02	-7.7445E-04	0.0000E+00	0	2
6.309573E+02	0.0000E+00	0.0000E+00	1.010000E+01	6.6850E-02	-1.5888E-03	0.0000E+00	0	2
5.011872E+02	0.0000E+00	0.0000E+00	1.043500E+01	6.7214E-02	-2.0808E-03	0.0000E+00	0	2
3.981072E+02	0.0000E+00	0.0000E+00	1.074000E+01	6.7853E-02	-2.6359E-03	0.0000E+00	0	2
2.511886E+02	0.0000E+00	0.0000E+00	1.140400E+01	6.9095E-02	-3.1944E-03	0.0000E+00	0	2
1.995262E+02	0.0000E+00	0.0000E+00	1.170600E+01	6.9663E-02	-3.4947E-03	0.0000E+00	0	2
1.584893E+02	0.0000E+00	0.0000E+00	1.201900E+01	7.0235E-02	-4.0032E-03	0.0000E+00	0	2
1.258925E+02	0.0000E+00	0.0000E+00	1.241100E+01	7.0742E-02	-4.2429E-03	0.0000E+00	0	2
1.000000E+02	0.0000E+00	0.0000E+00	1.276800E+01	7.1505E-02	-4.2545E-03	0.0000E+00	0	2
7.943282E+01	0.0000E+00	0.0000E+00	1.319500E+01	7.1972E-02	-4.3893E-03	0.0000E+00	0	2
6.309573E+01	0.0000E+00	0.0000E+00	1.355100E+01	7.2712E-02	-4.7306E-03	0.0000E+00	0	2
5.011872E+01	0.0000E+00	0.0000E+00	1.394000E+01	7.3559E-02	-4.8984E-03	0.0000E+00	0	2
3.981072E+01	0.0000E+00	0.0000E+00	1.436000E+01	7.4291E-02	-4.9905E-03	0.0000E+00	0	2
3.162278E+01	0.0000E+00	0.0000E+00	1.471500E+01	7.4822E-02	-5.1918E-03	0.0000E+00	0	2
2.511886E+01	0.0000E+00	0.0000E+00	1.510200E+01	7.5572E-02	-5.1694E-03	0.0000E+00	0	2
1.995262E+01	0.0000E+00	0.0000E+00	1.552500E+01	7.6512E-02	-5.6201E-03	0.0000E+00	0	2
1.584893E+01	0.0000E+00	0.0000E+00	1.599300E+01	7.6888E-02	-6.0611E-03	0.0000E+00	0	2
1.258925E+01	0.0000E+00	0.0000E+00	1.651900E+01	7.7254E-02	-6.4718E-03	0.0000E+00	0	2
1.000000E+01	0.0000E+00	0.0000E+00	1.711800E+01	7.7873E-02	-7.3305E-03	0.0000E+00	0	2
7.943282E+00	0.0000E+00	0.0000E+00	1.781200E+01	7.8481E-02	-7.9005E-03	0.0000E+00	0	2
6.309574E+00	0.0000E+00	0.0000E+00	1.862800E+01	7.9146E-02	-8.9731E-03	0.0000E+00	0	2
5.011872E+00	0.0000E+00	0.0000E+00	1.959100E+01	8.0126E-02	-1.0674E-02	0.0000E+00	0	2
3.981072E+00	0.0000E+00	0.0000E+00	2.073900E+01	8.1202E-02	-1.2360E-02	0.0000E+00	0	2
3.162278E+00	0.0000E+00	0.0000E+00	2.212100E+01	8.2624E-02	-1.4595E-02	0.0000E+00	0	2
2.511886E+00	0.0000E+00	0.0000E+00	2.380300E+01	8.4426E-02	-1.6680E-02	0.0000E+00	0	2
1.995262E+00	0.0000E+00	0.0000E+00	2.584800E+01	8.6862E-02	-1.9710E-02	0.0000E+00	0	2
1.584893E+00	0.0000E+00	0.0000E+00	2.836200E+01	9.0253E-02	-2.2113E-02	0.0000E+00	0	2
1.258925E+00	0.0000E+00	0.0000E+00	3.146600E+01	9.3946E-02	-2.5175E-02	0.0000E+00	0	2
1.000000E+00	0.0000E+00	0.0000E+00	3.537900E+01	9.9137E-02	-2.7269E-02	0.0000E+00	0	2
7.943282E-01	0.0000E+00	0.0000E+00	4.021500E+01	1.0476E-01	-2.8935E-02	0.0000E+00	0	2
6.309574E-01	0.0000E+00	0.0000E+00	4.621400E+01	1.1097E-01	-2.9572E-02	0.0000E+00	0	2
5.011872E-01	0.0000E+00	0.0000E+00	5.367400E+01	1.1680E-01	-2.9243E-02	0.0000E+00	0	2
3.981072E-01	0.0000E+00	0.0000E+00	6.298100E+01	1.2295E-01	-2.7557E-02	0.0000E+00	0	2
3.162278E-01	0.0000E+00	0.0000E+00	7.460900E+01	1.2758E-01	-2.5490E-02	0.0000E+00	0	2
2.511886E-01	0.0000E+00	0.0000E+00	8.915600E+01	1.3169E-01	-2.2948E-02	0.0000E+00	0	2
1.995262E-01	0.0000E+00	0.0000E+00	1.073800E+02	1.3473E-01	-2.0309E-02	0.0000E+00	0	2
1.584893E-01	0.0000E+00	0.0000E+00	1.302370E+02	1.3749E-01	-1.7904E-02	0.0000E+00	0	2
1.258925E-01	0.0000E+00	0.0000E+00	1.589190E+02	1.3928E-01	-1.5867E-02	0.0000E+00	0	2
1.000000E-01	0.0000E+00	0.0000E+00	1.953390E+02	1.4083E-01	-1.4385E-02	0.0000E+00	0	2
7.943282E-02	0.0000E+00	0.0000E+00	2.409980E+02	1.4182E-01	-1.3147E-02	0.0000E+00	0	2
6.309573E-02	0.0000E+00	0.0000E+00	2.982860E+02	1.4303E-01	-1.2497E-02	0.0000E+00	0	2
5.011872E-02	0.0000E+00	0.0000E+00	3.702140E+02	1.4376E-01	-1.1836E-02	0.0000E+00	0	2
3.981072E-02	0.0000E+00	0.0000E+00	4.605750E+02	1.4483E-01	-1.2091E-02	0.0000E+00	0	2
3.162277E-02	0.0000E+00	0.0000E+00	5.741340E+02	1.4570E-01	-1.2303E-02	0.0000E+00	0	2
2.511887E-02	0.0000E+00	0.0000E+00	7.169070E+02	1.4651E-01	-1.3390E-02	0.0000E+00	0	2
1.995262E-02	0.0000E+00	0.0000E+00	8.964540E+02	1.4793E-01	-1.4693E-02	0.0000E+00	0	2
1.584893E-02	0.0000E+00	0.0000E+00	1.122302E+03	1.4957E-01	-1.6033E-02	0.0000E+00	0	2
1.258925E-02	0.0000E+00	0.0000E+00	1.406428E+03	1.5242E-01	-1.8398E-02	0.0000E+00	0	2
1.000000E-02	0.0000E+00	0.0000E+00	1.764435E+03	1.5453E-01	-2.0703E-02	0.0000E+00	0	2
