ZPLOT2 ASCII
  Measured Data, VersaStudio:   2.60.6.0
  Experiment Type:            Sweep Frequency, Control Voltage
  Date:                       8-16-2020
  Time:                       16:14:19
  Open Circuit Potential (V): 0
  Begin User Comments:        0
  End User Comments:          0
  Begin Experiment:           0
  End Experiment:             0
  Begin Pstat/Gstat:          VersaSTAT3
  End Pstat/Gstat:            VersaSTAT3
  Begin Analyzer:             0
  End Analyzer:               0
  Begin Information:          Cell Information
    Surface Area:             1
    Density:                  0
    Weight:                   0
    Polarity:                 0
    PolarityI:                0
    Corrosion Unit Type:      0
    Reference Type:           0
    Reference Potential:      0
    User-Defined Potential:   0
    Stern-Geary:              26
  End Information:            Cell Information
  Null Configuration:         0,3,0,1,100000,0.1
  Data Points:                58
  Freq(Hz)	Ampl	Bias	Time(Sec)	Z'(a)	Z''(b)	GD	Err	Range
End Comments
1.000000E+04	0.0000E+00	0.0000E+00	5.492000E+00	7.4646E-02	2.6885E-02	0.0000E+00	0	2
7.943282E+03	0.0000E+00	0.0000E+00	6.115000E+00	7.3900E-02	2.1034E-02	0.0000E+00	0	2
6.309573E+03	0.0000E+00	0.0000E+00	6.398000E+00	7.3358E-02	1.6538E-02	0.0000E+00	0	2
5.011873E+03	0.0000E+00	0.0000E+00	6.665000E+00	7.3216E-02	1.2918E-02	0.0000E+00	0	2
3.981072E+03	0.0000E+00	0.0000E+00	6.930000E+00	7.3057E-02	9.8971E-03	0.0000E+00	0	2
3.162278E+03	0.0000E+00	0.0000E+00	7.215000E+00	7.3123E-02	7.4149E-03	0.0000E+00	0	2
2.511886E+03	0.0000E+00	0.0000E+00	7.484000E+00	7.3093E-02	5.2616E-03	0.0000E+00	0	2
1.995262E+03	0.0000E+00	0.0000E+00	7.743000E+00	7.3292E-02	3.7393E-03	0.0000E+00	0	2
1.584893E+03	0.0000E+00	0.0000E+00	8.016000E+00	7.3680E-02	2.1821E-03	0.0000E+00	0	2
1.258925E+03	0.0000E+00	0.0000E+00	8.364000E+00	7.4046E-02	1.0730E-03	0.0000E+00	0	2
7.943282E+02	0.0000E+00	0.0000E+00	8.951000E+00	7.4723E-02	-7.9828E-04	0.0000E+00	0	2
6.309573E+02	0.0000E+00	0.0000E+00	9.231000E+00	7.5080E-02	-1.5378E-03	0.0000E+00	0	2
5.011872E+02	0.0000E+00	0.0000E+00	9.557000E+00	7.5476E-02	-1.8256E-03	0.0000E+00	0	2
3.981072E+02	0.0000E+00	0.0000E+00	9.853000E+00	7.6363E-02	-2.4708E-03	0.0000E+00	0	2
3.162278E+02	0.0000E+00	0.0000E+00	1.012900E+01	7.6857E-02	-2.9014E-03	0.0000E+00	0	2
2.511886E+02	0.0000E+00	0.0000E+00	1.049900E+01	7.7282E-02	-3.3923E-03	0.0000E+00	0	2
1.995262E+02	0.0000E+00	0.0000E+00	1.079300E+01	7.7837E-02	-3.5386E-03	0.0000E+00	0	2
1.584893E+02	0.0000E+00	0.0000E+00	1.110100E+01	7.8462E-02	-4.0321E-03	0.0000E+00	0	2
1.258925E+02	0.0000E+00	0.0000E+00	1.149100E+01	7.9018E-02	-4.1799E-03	0.0000E+00	0	2
7.943282E+01	0.0000E+00	0.0000E+00	1.225800E+01	8.0426E-02	-4.6383E-03	0.0000E+00	0	2
6.309573E+01	0.0000E+00	0.0000E+00	1.261400E+01	8.1178E-02	-4.6401E-03	0.0000E+00	0	2
5.011872E+01	0.0000E+00	0.0000E+00	1.299900E+01	8.1960E-02	-5.0143E-03	0.0000E+00	0	2
3.981072E+01	0.0000E+00	0.0000E+00	1.342100E+01	8.2625E-02	-4.9624E-03	0.0000E+00	0	2
3.162278E+01	0.0000E+00	0.0000E+00	1.377600E+01	8.3344E-02	-5.2760E-03	0.0000E+00	0	2
2.511886E+01	0.0000E+00	0.0000E+00	1.416100E+01	8.3952E-02	-5.4614E-03	0.0000E+00	0	2
1.995262E+01	0.0000E+00	0.0000E+00	1.457600E+01	8.4796E-02	-5.6302E-03	0.0000E+00	0	2
1.258925E+01	0.0000E+00	0.0000E+00	1.556300E+01	8.5835E-02	-6.1175E-03	0.0000E+00	0	2
1.000000E+01	0.0000E+00	0.0000E+00	1.616100E+01	8.6362E-02	-7.1604E-03	0.0000E+00	0	2
7.943282E+00	0.0000E+00	0.0000E+00	1.685100E+01	8.7045E-02	-7.9935E-03	0.0000E+00	0	2
6.309574E+00	0.0000E+00	0.0000E+00	1.766100E+01	8.7744E-02	-9.0608E-03	0.0000E+00	0	2
5.011872E+00	0.0000E+00	0.0000E+00	1.861600E+01	8.8690E-02	-1.0327E-02	0.0000E+00	0	2
3.981072E+00	0.0000E+00	0.0000E+00	1.975900E+01	8.9689E-02	-1.2509E-02	0.0000E+00	0	2
3.162278E+00	0.0000E+00	0.0000E+00	2.113600E+01	9.1445E-02	-1.4533E-02	0.0000E+00	0	2
2.511886E+00	0.0000E+00	0.0000E+00	2.280500E+01	9.2998E-02	-1.6457E-02	0.0000E+00	0	2
1.995262E+00	0.0000E+00	0.0000E+00	2.484800E+01	9.5836E-02	-1.9041E-02	0.0000E+00	0	2
1.584893E+00	0.0000E+00	0.0000E+00	2.735500E+01	9.9661E-02	-2.1664E-02	0.0000E+00	0	2
1.258925E+00	0.0000E+00	0.0000E+00	3.045500E+01	1.0379E-01	-2.4235E-02	0.0000E+00	0	2
1.000000E+00	0.0000E+00	0.0000E+00	3.436500E+01	1.0853E-01	-2.5854E-02	0.0000E+00	0	2
7.943282E-01	0.0000E+00	0.0000E+00	3.919800E+01	1.1397E-01	-2.6148E-02	0.0000E+00	0	2
6.309574E-01	0.0000E+00	0.0000E+00	4.519100E+01	1.1956E-01	-2.5994E-02	0.0000E+00	0	2
5.011872E-01	0.0000E+00	0.0000E+00	5.264700E+01	1.2434E-01	-2.4908E-02	0.0000E+00	0	2
3.981072E-01	0.0000E+00	0.0000E+00	6.195000E+01	1.2947E-01	-2.3281E-02	0.0000E+00	0	2
3.162278E-01	0.0000E+00	0.0000E+00	7.357400E+01	1.3300E-01	-2.1109E-02	0.0000E+00	0	2
2.511886E-01	0.0000E+00	0.0000E+00	8.811500E+01	1.3606E-01	-1.8196E-02	0.0000E+00	0	2
1.995262E-01	0.0000E+00	0.0000E+00	1.063350E+02	1.3831E-01	-1.6339E-02	0.0000E+00	0	2
1.584893E-01	0.0000E+00	0.0000E+00	1.291900E+02	1.4016E-01	-1.4251E-02	0.0000E+00	0	2
1.258925E-01	0.0000E+00	0.0000E+00	1.578720E+02	1.4141E-01	-1.2769E-02	0.0000E+00	0	2
1.000000E-01	0.0000E+00	0.0000E+00	1.942900E+02	1.4245E-01	-1.1554E-02	0.0000E+00	0	2
7.943282E-02	0.0000E+00	0.0000E+00	2.399430E+02	1.4345E-01	-1.0637E-02	0.0000E+00	0	2
6.309573E-02	0.0000E+00	0.0000E+00	2.972270E+02	1.4401E-01	-1.0273E-02	0.0000E+00	0	2
5.011872E-02	0.0000E+00	0.0000E+00	3.691550E+02	1.4493E-01	-1.0085E-02	0.0000E+00	0	2
3.981072E-02	0.0000E+00	0.0000E+00	4.595110E+02	1.4533E-01	-9.9800E-03	0.0000E+00	0	2
3.162277E-02	0.0000E+00	0.0000E+00	5.730660E+02	1.4635E-01	-1.0914E-02	0.0000E+00	0	2
2.511887E-02	0.0000E+00	0.0000E+00	7.158360E+02	1.4721E-01	-1.1605E-02	0.0000E+00	0	2
1.995262E-02	0.0000E+00	0.0000E+00	8.953800E+02	1.4841E-01	-1.2874E-02	0.0000E+00	0	2
1.584893E-02	0.0000E+00	0.0000E+00	1.121224E+03	1.4945E-01	-1.4556E-02	0.0000E+00	0	2
1.258925E-02	0.0000E+00	0.0000E+00	1.405345E+03	1.5115E-01	-1.6557E-02	0.0000E+00	0	2
1.000000E-02	0.0000E+00	0.0000E+00	1.763345E+03	1.5330E-01	-1.9037E-02	0.0000E+00	0	2
