ZPLOT2 ASCII
  Measured Data, VersaStudio:   2.60.6.0
  Experiment Type:            Sweep Frequency, Control Voltage
  Date:                       8-16-2020
  Time:                       16:39:23
  Open Circuit Potential (V): 0
  Begin User Comments:        0
  End User Comments:          0
  Begin Experiment:           0
  End Experiment:             0
  Begin Pstat/Gstat:          VersaSTAT3
  End Pstat/Gstat:            VersaSTAT3
  Begin Analyzer:             0
  End Analyzer:               0
  Begin Information:          Cell Information
    Surface Area:             1
    Density:                  0
    Weight:                   0
    Polarity:                 0
    PolarityI:                0
    Corrosion Unit Type:      0
    Reference Type:           0
    Reference Potential:      0
    User-Defined Potential:   0
    Stern-Geary:              26
  End Information:            Cell Information
  Null Configuration:         0,3,0,1,100000,0.1
  Data Points:                58
  Freq(Hz)	Ampl	Bias	Time(Sec)	Z'(a)	Z''(b)	GD	Err	Range
End Comments
1.000000E+04	0.0000E+00	0.0000E+00	5.474000E+00	7.4531E-02	2.6649E-02	0.0000E+00	0	2
7.943282E+03	0.0000E+00	0.0000E+00	6.040000E+00	7.3806E-02	2.0936E-02	0.0000E+00	0	2
6.309573E+03	0.0000E+00	0.0000E+00	6.323000E+00	7.3366E-02	1.6655E-02	0.0000E+00	0	2
5.011873E+03	0.0000E+00	0.0000E+00	6.592000E+00	7.3077E-02	1.2830E-02	0.0000E+00	0	2
3.981072E+03	0.0000E+00	0.0000E+00	6.855000E+00	7.2966E-02	9.6928E-03	0.0000E+00	0	2
3.162278E+03	0.0000E+00	0.0000E+00	7.137000E+00	7.2909E-02	7.3600E-03	0.0000E+00	0	2
2.511886E+03	0.0000E+00	0.0000E+00	7.407000E+00	7.3137E-02	5.0788E-03	0.0000E+00	0	2
1.995262E+03	0.0000E+00	0.0000E+00	7.666000E+00	7.3246E-02	3.5868E-03	0.0000E+00	0	2
1.584893E+03	0.0000E+00	0.0000E+00	7.940000E+00	7.3601E-02	2.0640E-03	0.0000E+00	0	2
1.258925E+03	0.0000E+00	0.0000E+00	8.220000E+00	7.3951E-02	1.0436E-03	0.0000E+00	0	2
1.000000E+03	0.0000E+00	0.0000E+00	8.506000E+00	7.3977E-02	9.1941E-05	0.0000E+00	0	2
7.943282E+02	0.0000E+00	0.0000E+00	8.810000E+00	7.4788E-02	-9.2529E-04	0.0000E+00	0	2
6.309573E+02	0.0000E+00	0.0000E+00	9.091000E+00	7.5049E-02	-1.4705E-03	0.0000E+00	0	2
5.011872E+02	0.0000E+00	0.0000E+00	9.417000E+00	7.5947E-02	-2.0561E-03	0.0000E+00	0	2
3.981072E+02	0.0000E+00	0.0000E+00	9.716000E+00	7.6373E-02	-2.6685E-03	0.0000E+00	0	2
3.162278E+02	0.0000E+00	0.0000E+00	9.991000E+00	7.6702E-02	-2.7050E-03	0.0000E+00	0	2
2.511886E+02	0.0000E+00	0.0000E+00	1.036500E+01	7.7490E-02	-3.3106E-03	0.0000E+00	0	2
1.995262E+02	0.0000E+00	0.0000E+00	1.066000E+01	7.8094E-02	-3.5160E-03	0.0000E+00	0	2
1.584893E+02	0.0000E+00	0.0000E+00	1.096700E+01	7.8617E-02	-3.9889E-03	0.0000E+00	0	2
1.258925E+02	0.0000E+00	0.0000E+00	1.135400E+01	7.9257E-02	-4.3912E-03	0.0000E+00	0	2
1.000000E+02	0.0000E+00	0.0000E+00	1.170300E+01	7.9920E-02	-4.4197E-03	0.0000E+00	0	2
6.309573E+01	0.0000E+00	0.0000E+00	1.248200E+01	8.1298E-02	-4.7442E-03	0.0000E+00	0	2
5.011872E+01	0.0000E+00	0.0000E+00	1.287100E+01	8.2089E-02	-4.5917E-03	0.0000E+00	0	2
3.981072E+01	0.0000E+00	0.0000E+00	1.329300E+01	8.2876E-02	-4.8426E-03	0.0000E+00	0	2
3.162278E+01	0.0000E+00	0.0000E+00	1.364200E+01	8.3528E-02	-4.9315E-03	0.0000E+00	0	2
2.511886E+01	0.0000E+00	0.0000E+00	1.402100E+01	8.4363E-02	-5.4285E-03	0.0000E+00	0	2
1.584893E+01	0.0000E+00	0.0000E+00	1.490600E+01	8.5583E-02	-6.3397E-03	0.0000E+00	0	2
1.000000E+01	0.0000E+00	0.0000E+00	1.602800E+01	8.6069E-02	-7.1672E-03	0.0000E+00	0	2
7.943282E+00	0.0000E+00	0.0000E+00	1.671900E+01	8.6525E-02	-7.9216E-03	0.0000E+00	0	2
6.309574E+00	0.0000E+00	0.0000E+00	1.752900E+01	8.7567E-02	-9.2318E-03	0.0000E+00	0	2
5.011872E+00	0.0000E+00	0.0000E+00	1.848500E+01	8.8456E-02	-1.0422E-02	0.0000E+00	0	2
3.981072E+00	0.0000E+00	0.0000E+00	1.962500E+01	8.9585E-02	-1.2031E-02	0.0000E+00	0	2
3.162278E+00	0.0000E+00	0.0000E+00	2.100700E+01	9.1298E-02	-1.4407E-02	0.0000E+00	0	2
2.511886E+00	0.0000E+00	0.0000E+00	2.268400E+01	9.3303E-02	-1.6789E-02	0.0000E+00	0	2
1.995262E+00	0.0000E+00	0.0000E+00	2.472600E+01	9.5812E-02	-1.9164E-02	0.0000E+00	0	2
1.584893E+00	0.0000E+00	0.0000E+00	2.723500E+01	9.9310E-02	-2.1872E-02	0.0000E+00	0	2
1.258925E+00	0.0000E+00	0.0000E+00	3.033800E+01	1.0379E-01	-2.4070E-02	0.0000E+00	0	2
1.000000E+00	0.0000E+00	0.0000E+00	3.424600E+01	1.0867E-01	-2.5764E-02	0.0000E+00	0	2
7.943282E-01	0.0000E+00	0.0000E+00	3.907900E+01	1.1371E-01	-2.6556E-02	0.0000E+00	0	2
6.309574E-01	0.0000E+00	0.0000E+00	4.507300E+01	1.1968E-01	-2.6352E-02	0.0000E+00	0	2
5.011872E-01	0.0000E+00	0.0000E+00	5.252700E+01	1.2456E-01	-2.5343E-02	0.0000E+00	0	2
3.981072E-01	0.0000E+00	0.0000E+00	6.182800E+01	1.2953E-01	-2.3676E-02	0.0000E+00	0	2
3.162278E-01	0.0000E+00	0.0000E+00	7.345000E+01	1.3330E-01	-2.1365E-02	0.0000E+00	0	2
2.511886E-01	0.0000E+00	0.0000E+00	8.799500E+01	1.3581E-01	-1.8582E-02	0.0000E+00	0	2
1.995262E-01	0.0000E+00	0.0000E+00	1.062160E+02	1.3861E-01	-1.7033E-02	0.0000E+00	0	2
1.584893E-01	0.0000E+00	0.0000E+00	1.290620E+02	1.4054E-01	-1.4551E-02	0.0000E+00	0	2
1.258925E-01	0.0000E+00	0.0000E+00	1.577450E+02	1.4196E-01	-1.2814E-02	0.0000E+00	0	2
1.000000E-01	0.0000E+00	0.0000E+00	1.941620E+02	1.4299E-01	-1.1547E-02	0.0000E+00	0	2
7.943282E-02	0.0000E+00	0.0000E+00	2.398160E+02	1.4373E-01	-1.0712E-02	0.0000E+00	0	2
6.309573E-02	0.0000E+00	0.0000E+00	2.971010E+02	1.4466E-01	-1.0219E-02	0.0000E+00	0	2
5.011872E-02	0.0000E+00	0.0000E+00	3.690270E+02	1.4522E-01	-1.0025E-02	0.0000E+00	0	2
3.981072E-02	0.0000E+00	0.0000E+00	4.593800E+02	1.4607E-01	-1.0270E-02	0.0000E+00	0	2
3.162277E-02	0.0000E+00	0.0000E+00	5.729370E+02	1.4672E-01	-1.0781E-02	0.0000E+00	0	2
2.511887E-02	0.0000E+00	0.0000E+00	7.157040E+02	1.4770E-01	-1.1883E-02	0.0000E+00	0	2
1.995262E-02	0.0000E+00	0.0000E+00	8.952450E+02	1.4857E-01	-1.3206E-02	0.0000E+00	0	2
1.584893E-02	0.0000E+00	0.0000E+00	1.121087E+03	1.4984E-01	-1.4885E-02	0.0000E+00	0	2
1.258925E-02	0.0000E+00	0.0000E+00	1.405214E+03	1.5152E-01	-1.7078E-02	0.0000E+00	0	2
1.000000E-02	0.0000E+00	0.0000E+00	1.763215E+03	1.5362E-01	-1.9320E-02	0.0000E+00	0	2
