ZPLOT2 ASCII
  Measured Data, VersaStudio:   2.60.6.0
  Experiment Type:            Sweep Frequency, Control Voltage
  Date:                       8-16-2020
  Time:                       17:4:31
  Open Circuit Potential (V): 0
  Begin User Comments:        0
  End User Comments:          0
  Begin Experiment:           0
  End Experiment:             0
  Begin Pstat/Gstat:          VersaSTAT3
  End Pstat/Gstat:            VersaSTAT3
  Begin Analyzer:             0
  End Analyzer:               0
  Begin Information:          Cell Information
    Surface Area:             1
    Density:                  0
    Weight:                   0
    Polarity:                 0
    PolarityI:                0
    Corrosion Unit Type:      0
    Reference Type:           0
    Reference Potential:      0
    User-Defined Potential:   0
    Stern-Geary:              26
  End Information:            Cell Information
  Null Configuration:         0,3,0,1,100000,0.1
  Data Points:                54
  Freq(Hz)	Ampl	Bias	Time(Sec)	Z'(a)	Z''(b)	GD	Err	Range
End Comments
1.000000E+04	0.0000E+00	0.0000E+00	5.489000E+00	7.4498E-02	2.6661E-02	0.0000E+00	0	2
7.943282E+03	0.0000E+00	0.0000E+00	6.052000E+00	7.3696E-02	2.0926E-02	0.0000E+00	0	2
6.309573E+03	0.0000E+00	0.0000E+00	6.333000E+00	7.3366E-02	1.6648E-02	0.0000E+00	0	2
5.011873E+03	0.0000E+00	0.0000E+00	6.600000E+00	7.3054E-02	1.2834E-02	0.0000E+00	0	2
3.981072E+03	0.0000E+00	0.0000E+00	6.863000E+00	7.2951E-02	9.7882E-03	0.0000E+00	0	2
3.162278E+03	0.0000E+00	0.0000E+00	7.148000E+00	7.2937E-02	7.4356E-03	0.0000E+00	0	2
2.511886E+03	0.0000E+00	0.0000E+00	7.418000E+00	7.3181E-02	5.1638E-03	0.0000E+00	0	2
1.995262E+03	0.0000E+00	0.0000E+00	7.680000E+00	7.3344E-02	3.6258E-03	0.0000E+00	0	2
1.584893E+03	0.0000E+00	0.0000E+00	7.952000E+00	7.3662E-02	2.1062E-03	0.0000E+00	0	2
1.258925E+03	0.0000E+00	0.0000E+00	8.230000E+00	7.4066E-02	9.0488E-04	0.0000E+00	0	2
1.000000E+03	0.0000E+00	0.0000E+00	8.515000E+00	7.4691E-02	3.4129E-04	0.0000E+00	0	2
6.309573E+02	0.0000E+00	0.0000E+00	9.090000E+00	7.5432E-02	-1.1709E-03	0.0000E+00	0	2
3.981072E+02	0.0000E+00	0.0000E+00	9.715000E+00	7.6486E-02	-2.4083E-03	0.0000E+00	0	2
3.162278E+02	0.0000E+00	0.0000E+00	9.992000E+00	7.6564E-02	-2.7694E-03	0.0000E+00	0	2
2.511886E+02	0.0000E+00	0.0000E+00	1.036600E+01	7.7165E-02	-3.3207E-03	0.0000E+00	0	2
1.995262E+02	0.0000E+00	0.0000E+00	1.066100E+01	7.7745E-02	-3.7314E-03	0.0000E+00	0	2
1.584893E+02	0.0000E+00	0.0000E+00	1.096600E+01	7.8414E-02	-4.1275E-03	0.0000E+00	0	2
1.258925E+02	0.0000E+00	0.0000E+00	1.135300E+01	7.9386E-02	-4.1242E-03	0.0000E+00	0	2
1.000000E+02	0.0000E+00	0.0000E+00	1.170300E+01	7.9796E-02	-4.4290E-03	0.0000E+00	0	2
7.943282E+01	0.0000E+00	0.0000E+00	1.212600E+01	8.0615E-02	-4.4196E-03	0.0000E+00	0	2
6.309573E+01	0.0000E+00	0.0000E+00	1.248000E+01	8.1295E-02	-4.6681E-03	0.0000E+00	0	2
5.011872E+01	0.0000E+00	0.0000E+00	1.286400E+01	8.1836E-02	-4.9664E-03	0.0000E+00	0	2
3.981072E+01	0.0000E+00	0.0000E+00	1.328600E+01	8.2746E-02	-4.8598E-03	0.0000E+00	0	2
1.995262E+01	0.0000E+00	0.0000E+00	1.443300E+01	8.4534E-02	-5.6389E-03	0.0000E+00	0	2
1.584893E+01	0.0000E+00	0.0000E+00	1.490200E+01	8.5309E-02	-6.1587E-03	0.0000E+00	0	2
1.258925E+01	0.0000E+00	0.0000E+00	1.542300E+01	8.5647E-02	-6.7238E-03	0.0000E+00	0	2
1.000000E+01	0.0000E+00	0.0000E+00	1.602100E+01	8.6000E-02	-7.0149E-03	0.0000E+00	0	2
7.943282E+00	0.0000E+00	0.0000E+00	1.670800E+01	8.7178E-02	-7.7663E-03	0.0000E+00	0	2
6.309574E+00	0.0000E+00	0.0000E+00	1.751900E+01	8.7625E-02	-9.2905E-03	0.0000E+00	0	2
5.011872E+00	0.0000E+00	0.0000E+00	1.847900E+01	8.8520E-02	-1.0687E-02	0.0000E+00	0	2
3.981072E+00	0.0000E+00	0.0000E+00	1.962100E+01	8.9470E-02	-1.2596E-02	0.0000E+00	0	2
3.162278E+00	0.0000E+00	0.0000E+00	2.099800E+01	9.1140E-02	-1.4801E-02	0.0000E+00	0	2
2.511886E+00	0.0000E+00	0.0000E+00	2.267200E+01	9.3249E-02	-1.6888E-02	0.0000E+00	0	2
1.995262E+00	0.0000E+00	0.0000E+00	2.471600E+01	9.5944E-02	-1.9493E-02	0.0000E+00	0	2
1.584893E+00	0.0000E+00	0.0000E+00	2.722400E+01	9.9127E-02	-2.2143E-02	0.0000E+00	0	2
1.258925E+00	0.0000E+00	0.0000E+00	3.032200E+01	1.0355E-01	-2.4373E-02	0.0000E+00	0	2
1.000000E+00	0.0000E+00	0.0000E+00	3.422900E+01	1.0850E-01	-2.5683E-02	0.0000E+00	0	2
7.943282E-01	0.0000E+00	0.0000E+00	3.906400E+01	1.1391E-01	-2.6912E-02	0.0000E+00	0	2
6.309574E-01	0.0000E+00	0.0000E+00	4.505700E+01	1.1944E-01	-2.6905E-02	0.0000E+00	0	2
5.011872E-01	0.0000E+00	0.0000E+00	5.251400E+01	1.2473E-01	-2.5707E-02	0.0000E+00	0	2
3.981072E-01	0.0000E+00	0.0000E+00	6.181800E+01	1.2949E-01	-2.3595E-02	0.0000E+00	0	2
3.162278E-01	0.0000E+00	0.0000E+00	7.344100E+01	1.3319E-01	-2.1326E-02	0.0000E+00	0	2
2.511886E-01	0.0000E+00	0.0000E+00	8.798300E+01	1.3677E-01	-1.9044E-02	0.0000E+00	0	2
1.995262E-01	0.0000E+00	0.0000E+00	1.062030E+02	1.3910E-01	-1.6456E-02	0.0000E+00	0	2
1.584893E-01	0.0000E+00	0.0000E+00	1.290530E+02	1.4120E-01	-1.4610E-02	0.0000E+00	0	2
1.000000E-01	0.0000E+00	0.0000E+00	1.941560E+02	1.4386E-01	-1.1777E-02	0.0000E+00	0	2
7.943282E-02	0.0000E+00	0.0000E+00	2.398120E+02	1.4435E-01	-1.1128E-02	0.0000E+00	0	2
5.011872E-02	0.0000E+00	0.0000E+00	3.690160E+02	1.4540E-01	-1.0319E-02	0.0000E+00	0	2
3.981072E-02	0.0000E+00	0.0000E+00	4.593730E+02	1.4625E-01	-1.0474E-02	0.0000E+00	0	2
3.162277E-02	0.0000E+00	0.0000E+00	5.729260E+02	1.4743E-01	-1.0929E-02	0.0000E+00	0	2
2.511887E-02	0.0000E+00	0.0000E+00	7.156950E+02	1.4811E-01	-1.1701E-02	0.0000E+00	0	2
1.584893E-02	0.0000E+00	0.0000E+00	1.121086E+03	1.5036E-01	-1.4973E-02	0.0000E+00	0	2
1.258925E-02	0.0000E+00	0.0000E+00	1.405210E+03	1.5215E-01	-1.6691E-02	0.0000E+00	0	2
1.000000E-02	0.0000E+00	0.0000E+00	1.763210E+03	1.5342E-01	-1.9236E-02	0.0000E+00	0	2
