ZPLOT2 ASCII
  Measured Data, VersaStudio:   2.60.6.0
  Experiment Type:            Sweep Frequency, Control Voltage
  Date:                       8-16-2020
  Time:                       17:29:52
  Open Circuit Potential (V): 0
  Begin User Comments:        0
  End User Comments:          0
  Begin Experiment:           0
  End Experiment:             0
  Begin Pstat/Gstat:          VersaSTAT3
  End Pstat/Gstat:            VersaSTAT3
  Begin Analyzer:             0
  End Analyzer:               0
  Begin Information:          Cell Information
    Surface Area:             1
    Density:                  0
    Weight:                   0
    Polarity:                 0
    PolarityI:                0
    Corrosion Unit Type:      0
    Reference Type:           0
    Reference Potential:      0
    User-Defined Potential:   0
    Stern-Geary:              26
  End Information:            Cell Information
  Null Configuration:         0,3,0,1,100000,0.1
  Data Points:                58
  Freq(Hz)	Ampl	Bias	Time(Sec)	Z'(a)	Z''(b)	GD	Err	Range
End Comments
1.000000E+04	0.0000E+00	0.0000E+00	5.491000E+00	7.4564E-02	2.6691E-02	0.0000E+00	0	2
7.943282E+03	0.0000E+00	0.0000E+00	6.057000E+00	7.3930E-02	2.0881E-02	0.0000E+00	0	2
6.309573E+03	0.0000E+00	0.0000E+00	6.340000E+00	7.3466E-02	1.6582E-02	0.0000E+00	0	2
5.011873E+03	0.0000E+00	0.0000E+00	6.608000E+00	7.3108E-02	1.2932E-02	0.0000E+00	0	2
3.981072E+03	0.0000E+00	0.0000E+00	6.872000E+00	7.3018E-02	9.8625E-03	0.0000E+00	0	2
3.162278E+03	0.0000E+00	0.0000E+00	7.154000E+00	7.2986E-02	7.4818E-03	0.0000E+00	0	2
2.511886E+03	0.0000E+00	0.0000E+00	7.424000E+00	7.3119E-02	5.3110E-03	0.0000E+00	0	2
1.995262E+03	0.0000E+00	0.0000E+00	7.685000E+00	7.3407E-02	3.7175E-03	0.0000E+00	0	2
1.584893E+03	0.0000E+00	0.0000E+00	7.961000E+00	7.3747E-02	2.2094E-03	0.0000E+00	0	2
1.258925E+03	0.0000E+00	0.0000E+00	8.240000E+00	7.4073E-02	9.7728E-04	0.0000E+00	0	2
1.000000E+03	0.0000E+00	0.0000E+00	8.525000E+00	7.4689E-02	-3.5927E-04	0.0000E+00	0	2
7.943282E+02	0.0000E+00	0.0000E+00	8.825000E+00	7.4957E-02	-9.0569E-04	0.0000E+00	0	2
5.011872E+02	0.0000E+00	0.0000E+00	9.430000E+00	7.5904E-02	-1.9069E-03	0.0000E+00	0	2
3.981072E+02	0.0000E+00	0.0000E+00	9.727000E+00	7.6245E-02	-2.3285E-03	0.0000E+00	0	2
3.162278E+02	0.0000E+00	0.0000E+00	1.000400E+01	7.6825E-02	-2.9644E-03	0.0000E+00	0	2
2.511886E+02	0.0000E+00	0.0000E+00	1.037500E+01	7.7098E-02	-3.3599E-03	0.0000E+00	0	2
1.995262E+02	0.0000E+00	0.0000E+00	1.066800E+01	7.8204E-02	-3.8070E-03	0.0000E+00	0	2
1.584893E+02	0.0000E+00	0.0000E+00	1.097700E+01	7.8595E-02	-3.9309E-03	0.0000E+00	0	2
1.258925E+02	0.0000E+00	0.0000E+00	1.136800E+01	7.9372E-02	-3.9315E-03	0.0000E+00	0	2
7.943282E+01	0.0000E+00	0.0000E+00	1.214400E+01	8.0713E-02	-4.5853E-03	0.0000E+00	0	2
6.309573E+01	0.0000E+00	0.0000E+00	1.249900E+01	8.1006E-02	-4.7285E-03	0.0000E+00	0	2
5.011872E+01	0.0000E+00	0.0000E+00	1.288000E+01	8.2309E-02	-4.7602E-03	0.0000E+00	0	2
3.981072E+01	0.0000E+00	0.0000E+00	1.330400E+01	8.2889E-02	-5.0780E-03	0.0000E+00	0	2
3.162278E+01	0.0000E+00	0.0000E+00	1.365600E+01	8.3422E-02	-5.3638E-03	0.0000E+00	0	2
2.511886E+01	0.0000E+00	0.0000E+00	1.403800E+01	8.3882E-02	-5.5123E-03	0.0000E+00	0	2
1.995262E+01	0.0000E+00	0.0000E+00	1.445300E+01	8.4652E-02	-5.7027E-03	0.0000E+00	0	2
1.584893E+01	0.0000E+00	0.0000E+00	1.491700E+01	8.5266E-02	-6.2380E-03	0.0000E+00	0	2
1.258925E+01	0.0000E+00	0.0000E+00	1.544100E+01	8.5931E-02	-6.4520E-03	0.0000E+00	0	2
7.943282E+00	0.0000E+00	0.0000E+00	1.672600E+01	8.7226E-02	-7.8804E-03	0.0000E+00	0	2
6.309574E+00	0.0000E+00	0.0000E+00	1.753600E+01	8.7872E-02	-9.2374E-03	0.0000E+00	0	2
5.011872E+00	0.0000E+00	0.0000E+00	1.849100E+01	8.8810E-02	-1.0593E-02	0.0000E+00	0	2
3.981072E+00	0.0000E+00	0.0000E+00	1.963300E+01	8.9770E-02	-1.2431E-02	0.0000E+00	0	2
3.162278E+00	0.0000E+00	0.0000E+00	2.101200E+01	9.1319E-02	-1.4426E-02	0.0000E+00	0	2
2.511886E+00	0.0000E+00	0.0000E+00	2.268600E+01	9.3691E-02	-1.7050E-02	0.0000E+00	0	2
1.995262E+00	0.0000E+00	0.0000E+00	2.472600E+01	9.5654E-02	-1.9644E-02	0.0000E+00	0	2
1.584893E+00	0.0000E+00	0.0000E+00	2.723400E+01	9.9269E-02	-2.2350E-02	0.0000E+00	0	2
1.258925E+00	0.0000E+00	0.0000E+00	3.033600E+01	1.0395E-01	-2.4628E-02	0.0000E+00	0	2
1.000000E+00	0.0000E+00	0.0000E+00	3.424400E+01	1.0887E-01	-2.5976E-02	0.0000E+00	0	2
7.943282E-01	0.0000E+00	0.0000E+00	3.907700E+01	1.1436E-01	-2.7177E-02	0.0000E+00	0	2
6.309574E-01	0.0000E+00	0.0000E+00	4.507000E+01	1.1996E-01	-2.6582E-02	0.0000E+00	0	2
5.011872E-01	0.0000E+00	0.0000E+00	5.252500E+01	1.2522E-01	-2.5734E-02	0.0000E+00	0	2
3.981072E-01	0.0000E+00	0.0000E+00	6.182400E+01	1.2997E-01	-2.3782E-02	0.0000E+00	0	2
3.162278E-01	0.0000E+00	0.0000E+00	7.344700E+01	1.3382E-01	-2.1374E-02	0.0000E+00	0	2
2.511886E-01	0.0000E+00	0.0000E+00	8.799000E+01	1.3705E-01	-1.8940E-02	0.0000E+00	0	2
1.995262E-01	0.0000E+00	0.0000E+00	1.062110E+02	1.3933E-01	-1.6812E-02	0.0000E+00	0	2
1.584893E-01	0.0000E+00	0.0000E+00	1.290610E+02	1.4132E-01	-1.4777E-02	0.0000E+00	0	2
1.258925E-01	0.0000E+00	0.0000E+00	1.577460E+02	1.4264E-01	-1.2976E-02	0.0000E+00	0	2
1.000000E-01	0.0000E+00	0.0000E+00	1.941590E+02	1.4394E-01	-1.1940E-02	0.0000E+00	0	2
7.943282E-02	0.0000E+00	0.0000E+00	2.398130E+02	1.4514E-01	-1.0881E-02	0.0000E+00	0	2
6.309573E-02	0.0000E+00	0.0000E+00	2.970940E+02	1.4594E-01	-1.0144E-02	0.0000E+00	0	2
5.011872E-02	0.0000E+00	0.0000E+00	3.690200E+02	1.4612E-01	-1.0140E-02	0.0000E+00	0	2
3.981072E-02	0.0000E+00	0.0000E+00	4.593700E+02	1.4690E-01	-1.0463E-02	0.0000E+00	0	2
3.162277E-02	0.0000E+00	0.0000E+00	5.729300E+02	1.4756E-01	-1.0940E-02	0.0000E+00	0	2
2.511887E-02	0.0000E+00	0.0000E+00	7.157020E+02	1.4861E-01	-1.1663E-02	0.0000E+00	0	2
1.995262E-02	0.0000E+00	0.0000E+00	8.952440E+02	1.4959E-01	-1.2782E-02	0.0000E+00	0	2
1.584893E-02	0.0000E+00	0.0000E+00	1.121087E+03	1.5117E-01	-1.4945E-02	0.0000E+00	0	2
1.258925E-02	0.0000E+00	0.0000E+00	1.405205E+03	1.5277E-01	-1.7051E-02	0.0000E+00	0	2
1.000000E-02	0.0000E+00	0.0000E+00	1.763206E+03	1.5428E-01	-1.9407E-02	0.0000E+00	0	2
