ZPLOT2 ASCII
  Measured Data, VersaStudio:   2.60.6.0
  Experiment Type:            Sweep Frequency, Control Voltage
  Date:                       8-16-2020
  Time:                       17:56:50
  Open Circuit Potential (V): 0
  Begin User Comments:        0
  End User Comments:          0
  Begin Experiment:           0
  End Experiment:             0
  Begin Pstat/Gstat:          VersaSTAT3
  End Pstat/Gstat:            VersaSTAT3
  Begin Analyzer:             0
  End Analyzer:               0
  Begin Information:          Cell Information
    Surface Area:             1
    Density:                  0
    Weight:                   0
    Polarity:                 0
    PolarityI:                0
    Corrosion Unit Type:      0
    Reference Type:           0
    Reference Potential:      0
    User-Defined Potential:   0
    Stern-Geary:              26
  End Information:            Cell Information
  Null Configuration:         0,3,0,1,100000,0.1
  Data Points:                58
  Freq(Hz)	Ampl	Bias	Time(Sec)	Z'(a)	Z''(b)	GD	Err	Range
End Comments
1.000000E+04	0.0000E+00	0.0000E+00	5.486000E+00	7.4722E-02	2.6779E-02	0.0000E+00	0	2
7.943282E+03	0.0000E+00	0.0000E+00	6.049000E+00	7.3884E-02	2.0916E-02	0.0000E+00	0	2
6.309573E+03	0.0000E+00	0.0000E+00	6.333000E+00	7.3556E-02	1.6645E-02	0.0000E+00	0	2
5.011873E+03	0.0000E+00	0.0000E+00	6.601000E+00	7.3305E-02	1.2959E-02	0.0000E+00	0	2
3.981072E+03	0.0000E+00	0.0000E+00	6.868000E+00	7.3078E-02	9.8321E-03	0.0000E+00	0	2
3.162278E+03	0.0000E+00	0.0000E+00	7.153000E+00	7.3163E-02	7.5411E-03	0.0000E+00	0	2
2.511886E+03	0.0000E+00	0.0000E+00	7.424000E+00	7.3164E-02	5.2642E-03	0.0000E+00	0	2
1.995262E+03	0.0000E+00	0.0000E+00	7.684000E+00	7.3504E-02	3.7134E-03	0.0000E+00	0	2
1.584893E+03	0.0000E+00	0.0000E+00	7.960000E+00	7.3686E-02	2.1950E-03	0.0000E+00	0	2
1.258925E+03	0.0000E+00	0.0000E+00	8.241000E+00	7.3871E-02	9.6991E-04	0.0000E+00	0	2
1.000000E+03	0.0000E+00	0.0000E+00	8.530000E+00	7.4007E-02	2.8121E-04	0.0000E+00	0	2
7.943282E+02	0.0000E+00	0.0000E+00	8.833000E+00	7.5042E-02	-6.0301E-04	0.0000E+00	0	2
6.309573E+02	0.0000E+00	0.0000E+00	9.113000E+00	7.5595E-02	-1.3597E-03	0.0000E+00	0	2
3.981072E+02	0.0000E+00	0.0000E+00	9.734000E+00	7.6349E-02	-2.2654E-03	0.0000E+00	0	2
3.162278E+02	0.0000E+00	0.0000E+00	1.001100E+01	7.6911E-02	-2.6928E-03	0.0000E+00	0	2
2.511886E+02	0.0000E+00	0.0000E+00	1.038100E+01	7.7555E-02	-3.1829E-03	0.0000E+00	0	2
1.995262E+02	0.0000E+00	0.0000E+00	1.067800E+01	7.7759E-02	-3.6982E-03	0.0000E+00	0	2
1.584893E+02	0.0000E+00	0.0000E+00	1.098300E+01	7.8327E-02	-3.8307E-03	0.0000E+00	0	2
1.258925E+02	0.0000E+00	0.0000E+00	1.137100E+01	7.9406E-02	-4.2144E-03	0.0000E+00	0	2
1.000000E+02	0.0000E+00	0.0000E+00	1.172000E+01	7.9949E-02	-4.3408E-03	0.0000E+00	0	2
7.943282E+01	0.0000E+00	0.0000E+00	1.213900E+01	8.0797E-02	-4.3498E-03	0.0000E+00	0	2
6.309573E+01	0.0000E+00	0.0000E+00	1.249000E+01	8.1043E-02	-4.6147E-03	0.0000E+00	0	2
5.011872E+01	0.0000E+00	0.0000E+00	1.287300E+01	8.1683E-02	-4.8112E-03	0.0000E+00	0	2
3.981072E+01	0.0000E+00	0.0000E+00	1.329600E+01	8.2771E-02	-5.0289E-03	0.0000E+00	0	2
3.162278E+01	0.0000E+00	0.0000E+00	1.365300E+01	8.3705E-02	-5.1967E-03	0.0000E+00	0	2
2.511886E+01	0.0000E+00	0.0000E+00	1.403700E+01	8.4116E-02	-5.2577E-03	0.0000E+00	0	2
1.995262E+01	0.0000E+00	0.0000E+00	1.445800E+01	8.4875E-02	-5.7351E-03	0.0000E+00	0	2
1.584893E+01	0.0000E+00	0.0000E+00	1.492000E+01	8.5364E-02	-6.0034E-03	0.0000E+00	0	2
1.258925E+01	0.0000E+00	0.0000E+00	1.544300E+01	8.5924E-02	-6.4899E-03	0.0000E+00	0	2
1.000000E+01	0.0000E+00	0.0000E+00	1.603700E+01	8.6791E-02	-7.0744E-03	0.0000E+00	0	2
7.943282E+00	0.0000E+00	0.0000E+00	1.672500E+01	8.6896E-02	-8.0692E-03	0.0000E+00	0	2
6.309574E+00	0.0000E+00	0.0000E+00	1.753800E+01	8.7783E-02	-9.3969E-03	0.0000E+00	0	2
5.011872E+00	0.0000E+00	0.0000E+00	1.849600E+01	8.8606E-02	-1.0679E-02	0.0000E+00	0	2
3.981072E+00	0.0000E+00	0.0000E+00	1.963900E+01	8.9802E-02	-1.2789E-02	0.0000E+00	0	2
3.162278E+00	0.0000E+00	0.0000E+00	2.101900E+01	9.1452E-02	-1.4851E-02	0.0000E+00	0	2
2.511886E+00	0.0000E+00	0.0000E+00	2.268700E+01	9.3601E-02	-1.7192E-02	0.0000E+00	0	2
1.995262E+00	0.0000E+00	0.0000E+00	2.473100E+01	9.6150E-02	-1.9360E-02	0.0000E+00	0	2
1.584893E+00	0.0000E+00	0.0000E+00	2.723800E+01	9.9759E-02	-2.2682E-02	0.0000E+00	0	2
1.258925E+00	0.0000E+00	0.0000E+00	3.034000E+01	1.0383E-01	-2.4497E-02	0.0000E+00	0	2
1.000000E+00	0.0000E+00	0.0000E+00	3.425100E+01	1.0884E-01	-2.6187E-02	0.0000E+00	0	2
7.943282E-01	0.0000E+00	0.0000E+00	3.908400E+01	1.1414E-01	-2.6638E-02	0.0000E+00	0	2
6.309574E-01	0.0000E+00	0.0000E+00	4.507800E+01	1.1992E-01	-2.6759E-02	0.0000E+00	0	2
5.011872E-01	0.0000E+00	0.0000E+00	5.253500E+01	1.2535E-01	-2.5711E-02	0.0000E+00	0	2
3.981072E-01	0.0000E+00	0.0000E+00	6.183700E+01	1.3028E-01	-2.3695E-02	0.0000E+00	0	2
3.162278E-01	0.0000E+00	0.0000E+00	7.346000E+01	1.3439E-01	-2.1561E-02	0.0000E+00	0	2
2.511886E-01	0.0000E+00	0.0000E+00	8.800700E+01	1.3748E-01	-1.9199E-02	0.0000E+00	0	2
1.995262E-01	0.0000E+00	0.0000E+00	1.062270E+02	1.3997E-01	-1.7005E-02	0.0000E+00	0	2
1.584893E-01	0.0000E+00	0.0000E+00	1.290770E+02	1.4205E-01	-1.5061E-02	0.0000E+00	0	2
1.258925E-01	0.0000E+00	0.0000E+00	1.577570E+02	1.4326E-01	-1.3302E-02	0.0000E+00	0	2
1.000000E-01	0.0000E+00	0.0000E+00	1.941720E+02	1.4446E-01	-1.1881E-02	0.0000E+00	0	2
7.943282E-02	0.0000E+00	0.0000E+00	2.398310E+02	1.4535E-01	-1.0859E-02	0.0000E+00	0	2
6.309573E-02	0.0000E+00	0.0000E+00	2.971140E+02	1.4563E-01	-1.0307E-02	0.0000E+00	0	2
3.981072E-02	0.0000E+00	0.0000E+00	4.593980E+02	1.4742E-01	-1.0246E-02	0.0000E+00	0	2
3.162277E-02	0.0000E+00	0.0000E+00	5.729480E+02	1.4841E-01	-1.0942E-02	0.0000E+00	0	2
1.995262E-02	0.0000E+00	0.0000E+00	8.952620E+02	1.5005E-01	-1.3343E-02	0.0000E+00	0	2
1.584893E-02	0.0000E+00	0.0000E+00	1.121107E+03	1.5152E-01	-1.4683E-02	0.0000E+00	0	2
1.258925E-02	0.0000E+00	0.0000E+00	1.405228E+03	1.5277E-01	-1.7133E-02	0.0000E+00	0	2
1.000000E-02	0.0000E+00	0.0000E+00	1.763232E+03	1.5484E-01	-1.9491E-02	0.0000E+00	0	2
