ZPLOT2 ASCII
  Measured Data, VersaStudio:   2.60.6.0
  Experiment Type:            Sweep Frequency, Control Voltage
  Date:                       8-16-2020
  Time:                       18:21:55
  Open Circuit Potential (V): 0
  Begin User Comments:        0
  End User Comments:          0
  Begin Experiment:           0
  End Experiment:             0
  Begin Pstat/Gstat:          VersaSTAT3
  End Pstat/Gstat:            VersaSTAT3
  Begin Analyzer:             0
  End Analyzer:               0
  Begin Information:          Cell Information
    Surface Area:             1
    Density:                  0
    Weight:                   0
    Polarity:                 0
    PolarityI:                0
    Corrosion Unit Type:      0
    Reference Type:           0
    Reference Potential:      0
    User-Defined Potential:   0
    Stern-Geary:              26
  End Information:            Cell Information
  Null Configuration:         0,3,0,1,100000,0.1
  Data Points:                55
  Freq(Hz)	Ampl	Bias	Time(Sec)	Z'(a)	Z''(b)	GD	Err	Range
End Comments
1.000000E+04	0.0000E+00	0.0000E+00	5.482000E+00	7.4563E-02	2.6535E-02	0.0000E+00	0	2
7.943282E+03	0.0000E+00	0.0000E+00	5.985000E+00	7.4108E-02	2.1012E-02	0.0000E+00	0	2
6.309573E+03	0.0000E+00	0.0000E+00	6.267000E+00	7.3527E-02	1.6518E-02	0.0000E+00	0	2
5.011873E+03	0.0000E+00	0.0000E+00	6.535000E+00	7.3236E-02	1.2801E-02	0.0000E+00	0	2
3.981072E+03	0.0000E+00	0.0000E+00	6.799000E+00	7.3170E-02	9.8771E-03	0.0000E+00	0	2
3.162278E+03	0.0000E+00	0.0000E+00	7.084000E+00	7.2997E-02	7.3572E-03	0.0000E+00	0	2
2.511886E+03	0.0000E+00	0.0000E+00	7.354000E+00	7.3250E-02	5.1858E-03	0.0000E+00	0	2
1.995262E+03	0.0000E+00	0.0000E+00	7.615000E+00	7.3535E-02	3.5234E-03	0.0000E+00	0	2
1.584893E+03	0.0000E+00	0.0000E+00	7.892000E+00	7.3615E-02	2.0090E-03	0.0000E+00	0	2
1.258925E+03	0.0000E+00	0.0000E+00	8.168000E+00	7.4141E-02	8.5690E-04	0.0000E+00	0	2
7.943282E+02	0.0000E+00	0.0000E+00	8.759000E+00	7.4726E-02	-6.0983E-04	0.0000E+00	0	2
6.309573E+02	0.0000E+00	0.0000E+00	9.038000E+00	7.5568E-02	-1.1198E-03	0.0000E+00	0	2
3.981072E+02	0.0000E+00	0.0000E+00	9.660000E+00	7.6749E-02	-2.5620E-03	0.0000E+00	0	2
2.511886E+02	0.0000E+00	0.0000E+00	1.031400E+01	7.8151E-02	-3.1770E-03	0.0000E+00	0	2
1.995262E+02	0.0000E+00	0.0000E+00	1.060800E+01	7.8260E-02	-3.5381E-03	0.0000E+00	0	2
1.584893E+02	0.0000E+00	0.0000E+00	1.091600E+01	7.8590E-02	-3.5651E-03	0.0000E+00	0	2
1.258925E+02	0.0000E+00	0.0000E+00	1.130100E+01	7.9756E-02	-4.1492E-03	0.0000E+00	0	2
1.000000E+02	0.0000E+00	0.0000E+00	1.165000E+01	8.0512E-02	-4.3820E-03	0.0000E+00	0	2
7.943282E+01	0.0000E+00	0.0000E+00	1.206700E+01	8.1189E-02	-4.3154E-03	0.0000E+00	0	2
6.309573E+01	0.0000E+00	0.0000E+00	1.241800E+01	8.1643E-02	-4.6389E-03	0.0000E+00	0	2
5.011872E+01	0.0000E+00	0.0000E+00	1.280200E+01	8.2036E-02	-4.6666E-03	0.0000E+00	0	2
3.981072E+01	0.0000E+00	0.0000E+00	1.321700E+01	8.3000E-02	-4.8435E-03	0.0000E+00	0	2
3.162278E+01	0.0000E+00	0.0000E+00	1.357000E+01	8.3594E-02	-5.0512E-03	0.0000E+00	0	2
1.995262E+01	0.0000E+00	0.0000E+00	1.437200E+01	8.5204E-02	-5.3256E-03	0.0000E+00	0	2
1.584893E+01	0.0000E+00	0.0000E+00	1.483700E+01	8.5605E-02	-6.0039E-03	0.0000E+00	0	2
1.258925E+01	0.0000E+00	0.0000E+00	1.535800E+01	8.6312E-02	-6.4173E-03	0.0000E+00	0	2
1.000000E+01	0.0000E+00	0.0000E+00	1.595500E+01	8.6597E-02	-7.3651E-03	0.0000E+00	0	2
7.943282E+00	0.0000E+00	0.0000E+00	1.664400E+01	8.6881E-02	-8.1746E-03	0.0000E+00	0	2
6.309574E+00	0.0000E+00	0.0000E+00	1.745400E+01	8.7985E-02	-9.4813E-03	0.0000E+00	0	2
5.011872E+00	0.0000E+00	0.0000E+00	1.840900E+01	8.9328E-02	-1.0875E-02	0.0000E+00	0	2
3.981072E+00	0.0000E+00	0.0000E+00	1.955000E+01	8.9632E-02	-1.2481E-02	0.0000E+00	0	2
3.162278E+00	0.0000E+00	0.0000E+00	2.093100E+01	9.1610E-02	-1.5043E-02	0.0000E+00	0	2
2.511886E+00	0.0000E+00	0.0000E+00	2.260200E+01	9.3847E-02	-1.7373E-02	0.0000E+00	0	2
1.995262E+00	0.0000E+00	0.0000E+00	2.464300E+01	9.6498E-02	-1.9663E-02	0.0000E+00	0	2
1.584893E+00	0.0000E+00	0.0000E+00	2.715700E+01	9.9733E-02	-2.2470E-02	0.0000E+00	0	2
1.258925E+00	0.0000E+00	0.0000E+00	3.025500E+01	1.0415E-01	-2.4934E-02	0.0000E+00	0	2
1.000000E+00	0.0000E+00	0.0000E+00	3.416800E+01	1.0921E-01	-2.6736E-02	0.0000E+00	0	2
7.943282E-01	0.0000E+00	0.0000E+00	3.900000E+01	1.1493E-01	-2.7223E-02	0.0000E+00	0	2
6.309574E-01	0.0000E+00	0.0000E+00	4.499500E+01	1.1984E-01	-2.7524E-02	0.0000E+00	0	2
5.011872E-01	0.0000E+00	0.0000E+00	5.245400E+01	1.2535E-01	-2.5496E-02	0.0000E+00	0	2
3.981072E-01	0.0000E+00	0.0000E+00	6.175500E+01	1.3056E-01	-2.4330E-02	0.0000E+00	0	2
3.162278E-01	0.0000E+00	0.0000E+00	7.338100E+01	1.3420E-01	-2.2291E-02	0.0000E+00	0	2
2.511886E-01	0.0000E+00	0.0000E+00	8.791900E+01	1.3825E-01	-1.9717E-02	0.0000E+00	0	2
1.995262E-01	0.0000E+00	0.0000E+00	1.061360E+02	1.3987E-01	-1.7606E-02	0.0000E+00	0	2
1.584893E-01	0.0000E+00	0.0000E+00	1.289870E+02	1.4161E-01	-1.4719E-02	0.0000E+00	0	2
1.258925E-01	0.0000E+00	0.0000E+00	1.576690E+02	1.4376E-01	-1.3068E-02	0.0000E+00	0	2
1.000000E-01	0.0000E+00	0.0000E+00	1.940840E+02	1.4427E-01	-1.1296E-02	0.0000E+00	0	2
5.011872E-02	0.0000E+00	0.0000E+00	3.689460E+02	1.4642E-01	-1.0022E-02	0.0000E+00	0	2
3.981072E-02	0.0000E+00	0.0000E+00	4.593020E+02	1.4748E-01	-1.0426E-02	0.0000E+00	0	2
3.162277E-02	0.0000E+00	0.0000E+00	5.728580E+02	1.4828E-01	-1.0835E-02	0.0000E+00	0	2
2.511887E-02	0.0000E+00	0.0000E+00	7.156280E+02	1.4957E-01	-1.1949E-02	0.0000E+00	0	2
1.995262E-02	0.0000E+00	0.0000E+00	8.951740E+02	1.5077E-01	-1.3379E-02	0.0000E+00	0	2
1.584893E-02	0.0000E+00	0.0000E+00	1.121015E+03	1.5174E-01	-1.4820E-02	0.0000E+00	0	2
1.258925E-02	0.0000E+00	0.0000E+00	1.405137E+03	1.5321E-01	-1.7161E-02	0.0000E+00	0	2
1.000000E-02	0.0000E+00	0.0000E+00	1.763134E+03	1.5501E-01	-1.9427E-02	0.0000E+00	0	2
