ZPLOT2 ASCII
  Measured Data, VersaStudio:   2.60.6.0
  Experiment Type:            Sweep Frequency, Control Voltage
  Date:                       8-16-2020
  Time:                       18:47:44
  Open Circuit Potential (V): 0
  Begin User Comments:        0
  End User Comments:          0
  Begin Experiment:           0
  End Experiment:             0
  Begin Pstat/Gstat:          VersaSTAT3
  End Pstat/Gstat:            VersaSTAT3
  Begin Analyzer:             0
  End Analyzer:               0
  Begin Information:          Cell Information
    Surface Area:             1
    Density:                  0
    Weight:                   0
    Polarity:                 0
    PolarityI:                0
    Corrosion Unit Type:      0
    Reference Type:           0
    Reference Potential:      0
    User-Defined Potential:   0
    Stern-Geary:              26
  End Information:            Cell Information
  Null Configuration:         0,3,0,1,100000,0.1
  Data Points:                57
  Freq(Hz)	Ampl	Bias	Time(Sec)	Z'(a)	Z''(b)	GD	Err	Range
End Comments
1.000000E+04	0.0000E+00	0.0000E+00	5.488000E+00	7.4842E-02	2.6727E-02	0.0000E+00	0	2
7.943282E+03	0.0000E+00	0.0000E+00	5.992000E+00	7.4028E-02	2.0834E-02	0.0000E+00	0	2
6.309573E+03	0.0000E+00	0.0000E+00	6.273000E+00	7.3695E-02	1.6601E-02	0.0000E+00	0	2
5.011873E+03	0.0000E+00	0.0000E+00	6.542000E+00	7.3239E-02	1.2835E-02	0.0000E+00	0	2
3.981072E+03	0.0000E+00	0.0000E+00	6.807000E+00	7.3212E-02	9.8389E-03	0.0000E+00	0	2
3.162278E+03	0.0000E+00	0.0000E+00	7.092000E+00	7.3234E-02	7.3361E-03	0.0000E+00	0	2
2.511886E+03	0.0000E+00	0.0000E+00	7.362000E+00	7.3259E-02	5.1018E-03	0.0000E+00	0	2
1.995262E+03	0.0000E+00	0.0000E+00	7.624000E+00	7.3599E-02	3.5338E-03	0.0000E+00	0	2
1.584893E+03	0.0000E+00	0.0000E+00	7.895000E+00	7.4150E-02	2.1371E-03	0.0000E+00	0	2
1.258925E+03	0.0000E+00	0.0000E+00	8.177000E+00	7.4287E-02	9.9551E-04	0.0000E+00	0	2
7.943282E+02	0.0000E+00	0.0000E+00	8.766000E+00	7.5292E-02	-9.2258E-04	0.0000E+00	0	2
6.309573E+02	0.0000E+00	0.0000E+00	9.047000E+00	7.5739E-02	-1.5507E-03	0.0000E+00	0	2
5.011872E+02	0.0000E+00	0.0000E+00	9.370000E+00	7.5738E-02	-1.9131E-03	0.0000E+00	0	2
3.981072E+02	0.0000E+00	0.0000E+00	9.665000E+00	7.6283E-02	-2.9391E-03	0.0000E+00	0	2
2.511886E+02	0.0000E+00	0.0000E+00	1.031200E+01	7.7271E-02	-3.3631E-03	0.0000E+00	0	2
1.995262E+02	0.0000E+00	0.0000E+00	1.060600E+01	7.8471E-02	-3.6952E-03	0.0000E+00	0	2
1.584893E+02	0.0000E+00	0.0000E+00	1.091200E+01	7.9276E-02	-3.6800E-03	0.0000E+00	0	2
1.258925E+02	0.0000E+00	0.0000E+00	1.129600E+01	7.9780E-02	-3.9005E-03	0.0000E+00	0	2
1.000000E+02	0.0000E+00	0.0000E+00	1.164400E+01	8.0546E-02	-4.6105E-03	0.0000E+00	0	2
6.309573E+01	0.0000E+00	0.0000E+00	1.241700E+01	8.1772E-02	-4.7393E-03	0.0000E+00	0	2
5.011872E+01	0.0000E+00	0.0000E+00	1.280500E+01	8.2114E-02	-4.9992E-03	0.0000E+00	0	2
3.981072E+01	0.0000E+00	0.0000E+00	1.322700E+01	8.3005E-02	-5.5486E-03	0.0000E+00	0	2
3.162278E+01	0.0000E+00	0.0000E+00	1.358200E+01	8.3602E-02	-5.0800E-03	0.0000E+00	0	2
2.511886E+01	0.0000E+00	0.0000E+00	1.396200E+01	8.4534E-02	-5.6587E-03	0.0000E+00	0	2
1.995262E+01	0.0000E+00	0.0000E+00	1.438300E+01	8.5037E-02	-5.6755E-03	0.0000E+00	0	2
1.584893E+01	0.0000E+00	0.0000E+00	1.484300E+01	8.5727E-02	-6.1348E-03	0.0000E+00	0	2
1.258925E+01	0.0000E+00	0.0000E+00	1.536800E+01	8.6261E-02	-6.6860E-03	0.0000E+00	0	2
1.000000E+01	0.0000E+00	0.0000E+00	1.596400E+01	8.6529E-02	-7.3110E-03	0.0000E+00	0	2
7.943282E+00	0.0000E+00	0.0000E+00	1.665300E+01	8.7149E-02	-7.7306E-03	0.0000E+00	0	2
6.309574E+00	0.0000E+00	0.0000E+00	1.745900E+01	8.7962E-02	-9.0305E-03	0.0000E+00	0	2
5.011872E+00	0.0000E+00	0.0000E+00	1.841500E+01	8.9024E-02	-1.0843E-02	0.0000E+00	0	2
3.981072E+00	0.0000E+00	0.0000E+00	1.955400E+01	9.0236E-02	-1.2664E-02	0.0000E+00	0	2
3.162278E+00	0.0000E+00	0.0000E+00	2.093700E+01	9.1565E-02	-1.4939E-02	0.0000E+00	0	2
2.511886E+00	0.0000E+00	0.0000E+00	2.261200E+01	9.3649E-02	-1.7065E-02	0.0000E+00	0	2
1.995262E+00	0.0000E+00	0.0000E+00	2.465400E+01	9.5922E-02	-1.9817E-02	0.0000E+00	0	2
1.584893E+00	0.0000E+00	0.0000E+00	2.716400E+01	9.9988E-02	-2.2244E-02	0.0000E+00	0	2
1.258925E+00	0.0000E+00	0.0000E+00	3.026600E+01	1.0385E-01	-2.5247E-02	0.0000E+00	0	2
1.000000E+00	0.0000E+00	0.0000E+00	3.417900E+01	1.0927E-01	-2.6640E-02	0.0000E+00	0	2
7.943282E-01	0.0000E+00	0.0000E+00	3.900700E+01	1.1434E-01	-2.7121E-02	0.0000E+00	0	2
6.309574E-01	0.0000E+00	0.0000E+00	4.500700E+01	1.2003E-01	-2.6919E-02	0.0000E+00	0	2
5.011872E-01	0.0000E+00	0.0000E+00	5.247000E+01	1.2584E-01	-2.6374E-02	0.0000E+00	0	2
3.981072E-01	0.0000E+00	0.0000E+00	6.176900E+01	1.3034E-01	-2.4530E-02	0.0000E+00	0	2
3.162278E-01	0.0000E+00	0.0000E+00	7.339000E+01	1.3498E-01	-2.1980E-02	0.0000E+00	0	2
2.511886E-01	0.0000E+00	0.0000E+00	8.793100E+01	1.3827E-01	-1.9402E-02	0.0000E+00	0	2
1.995262E-01	0.0000E+00	0.0000E+00	1.061520E+02	1.4018E-01	-1.7611E-02	0.0000E+00	0	2
1.584893E-01	0.0000E+00	0.0000E+00	1.290080E+02	1.4208E-01	-1.5256E-02	0.0000E+00	0	2
1.258925E-01	0.0000E+00	0.0000E+00	1.576890E+02	1.4338E-01	-1.3691E-02	0.0000E+00	0	2
1.000000E-01	0.0000E+00	0.0000E+00	1.941060E+02	1.4497E-01	-1.1653E-02	0.0000E+00	0	2
6.309573E-02	0.0000E+00	0.0000E+00	2.970450E+02	1.4681E-01	-1.0582E-02	0.0000E+00	0	2
5.011872E-02	0.0000E+00	0.0000E+00	3.689680E+02	1.4717E-01	-1.0261E-02	0.0000E+00	0	2
3.981072E-02	0.0000E+00	0.0000E+00	4.593210E+02	1.4803E-01	-1.0645E-02	0.0000E+00	0	2
3.162277E-02	0.0000E+00	0.0000E+00	5.728760E+02	1.4908E-01	-1.1009E-02	0.0000E+00	0	2
2.511887E-02	0.0000E+00	0.0000E+00	7.156440E+02	1.4950E-01	-1.1960E-02	0.0000E+00	0	2
1.995262E-02	0.0000E+00	0.0000E+00	8.951890E+02	1.5067E-01	-1.3206E-02	0.0000E+00	0	2
1.584893E-02	0.0000E+00	0.0000E+00	1.121027E+03	1.5227E-01	-1.4643E-02	0.0000E+00	0	2
1.258925E-02	0.0000E+00	0.0000E+00	1.405152E+03	1.5392E-01	-1.7642E-02	0.0000E+00	0	2
1.000000E-02	0.0000E+00	0.0000E+00	1.763155E+03	1.5603E-01	-1.9455E-02	0.0000E+00	0	2
