ZPLOT2 ASCII
  Measured Data, VersaStudio:   2.60.6.0
  Experiment Type:            Sweep Frequency, Control Voltage
  Date:                       8-21-2020
  Time:                       8:52:51
  Open Circuit Potential (V): 0
  Begin User Comments:        0
  End User Comments:          0
  Begin Experiment:           0
  End Experiment:             0
  Begin Pstat/Gstat:          VersaSTAT3
  End Pstat/Gstat:            VersaSTAT3
  Begin Analyzer:             0
  End Analyzer:               0
  Begin Information:          Cell Information
    Surface Area:             1
    Density:                  0
    Weight:                   0
    Polarity:                 0
    PolarityI:                0
    Corrosion Unit Type:      0
    Reference Type:           0
    Reference Potential:      0
    User-Defined Potential:   0
    Stern-Geary:              26
  End Information:            Cell Information
  Null Configuration:         0,3,0,1,100000,0.1
  Data Points:                59
  Freq(Hz)	Ampl	Bias	Time(Sec)	Z'(a)	Z''(b)	GD	Err	Range
End Comments
1.000000E+04	0.0000E+00	0.0000E+00	5.523000E+00	6.5300E-02	2.4872E-02	0.0000E+00	0	2
7.943282E+03	0.0000E+00	0.0000E+00	6.806000E+00	6.4440E-02	1.9674E-02	0.0000E+00	0	2
6.309573E+03	0.0000E+00	0.0000E+00	7.097000E+00	6.3998E-02	1.5667E-02	0.0000E+00	0	2
5.011873E+03	0.0000E+00	0.0000E+00	7.375000E+00	6.3804E-02	1.2332E-02	0.0000E+00	0	2
3.981072E+03	0.0000E+00	0.0000E+00	7.644000E+00	6.3624E-02	9.5197E-03	0.0000E+00	0	2
3.162278E+03	0.0000E+00	0.0000E+00	7.935000E+00	6.3720E-02	7.1731E-03	0.0000E+00	0	2
2.511886E+03	0.0000E+00	0.0000E+00	8.209000E+00	6.3788E-02	5.0339E-03	0.0000E+00	0	2
1.995262E+03	0.0000E+00	0.0000E+00	8.475000E+00	6.3945E-02	3.4436E-03	0.0000E+00	0	2
1.584893E+03	0.0000E+00	0.0000E+00	8.882000E+00	6.4247E-02	2.0061E-03	0.0000E+00	0	2
1.258925E+03	0.0000E+00	0.0000E+00	9.299000E+00	6.4570E-02	8.3034E-04	0.0000E+00	0	2
7.943282E+02	0.0000E+00	0.0000E+00	9.901000E+00	6.5478E-02	-9.3747E-04	0.0000E+00	0	2
5.011872E+02	0.0000E+00	0.0000E+00	1.051300E+01	6.6285E-02	-2.1204E-03	0.0000E+00	0	2
3.981072E+02	0.0000E+00	0.0000E+00	1.081300E+01	6.6668E-02	-2.5906E-03	0.0000E+00	0	2
3.162278E+02	0.0000E+00	0.0000E+00	1.109800E+01	6.7385E-02	-2.8967E-03	0.0000E+00	0	2
2.511886E+02	0.0000E+00	0.0000E+00	1.147900E+01	6.8070E-02	-3.4654E-03	0.0000E+00	0	2
1.995262E+02	0.0000E+00	0.0000E+00	1.178500E+01	6.8670E-02	-3.6539E-03	0.0000E+00	0	2
1.584893E+02	0.0000E+00	0.0000E+00	1.209700E+01	6.9121E-02	-3.7792E-03	0.0000E+00	0	2
1.258925E+02	0.0000E+00	0.0000E+00	1.249200E+01	6.9918E-02	-4.1444E-03	0.0000E+00	0	2
1.000000E+02	0.0000E+00	0.0000E+00	1.284900E+01	7.0400E-02	-4.3900E-03	0.0000E+00	0	2
7.943282E+01	0.0000E+00	0.0000E+00	1.327400E+01	7.1157E-02	-4.4807E-03	0.0000E+00	0	2
6.309573E+01	0.0000E+00	0.0000E+00	1.363200E+01	7.2016E-02	-4.8241E-03	0.0000E+00	0	2
5.011872E+01	0.0000E+00	0.0000E+00	1.401900E+01	7.2587E-02	-4.9180E-03	0.0000E+00	0	2
3.981072E+01	0.0000E+00	0.0000E+00	1.444700E+01	7.3468E-02	-5.2070E-03	0.0000E+00	0	2
3.162278E+01	0.0000E+00	0.0000E+00	1.480400E+01	7.4019E-02	-5.2546E-03	0.0000E+00	0	2
2.511886E+01	0.0000E+00	0.0000E+00	1.518900E+01	7.4337E-02	-5.4416E-03	0.0000E+00	0	2
1.995262E+01	0.0000E+00	0.0000E+00	1.561400E+01	7.5503E-02	-5.6065E-03	0.0000E+00	0	2
1.584893E+01	0.0000E+00	0.0000E+00	1.608200E+01	7.5986E-02	-6.0158E-03	0.0000E+00	0	2
1.258925E+01	0.0000E+00	0.0000E+00	1.661200E+01	7.6463E-02	-6.5688E-03	0.0000E+00	0	2
1.000000E+01	0.0000E+00	0.0000E+00	1.721200E+01	7.7196E-02	-7.3572E-03	0.0000E+00	0	2
7.943282E+00	0.0000E+00	0.0000E+00	1.790500E+01	7.7669E-02	-8.1900E-03	0.0000E+00	0	2
6.309574E+00	0.0000E+00	0.0000E+00	1.871800E+01	7.8471E-02	-9.4532E-03	0.0000E+00	0	2
5.011872E+00	0.0000E+00	0.0000E+00	1.968000E+01	7.9015E-02	-1.1140E-02	0.0000E+00	0	2
3.981072E+00	0.0000E+00	0.0000E+00	2.082700E+01	8.0060E-02	-1.2753E-02	0.0000E+00	0	2
3.162278E+00	0.0000E+00	0.0000E+00	2.221100E+01	8.1354E-02	-1.5356E-02	0.0000E+00	0	2
2.511886E+00	0.0000E+00	0.0000E+00	2.389000E+01	8.3018E-02	-1.8162E-02	0.0000E+00	0	2
1.995262E+00	0.0000E+00	0.0000E+00	2.593800E+01	8.5393E-02	-2.1364E-02	0.0000E+00	0	2
1.584893E+00	0.0000E+00	0.0000E+00	2.845700E+01	8.8675E-02	-2.4865E-02	0.0000E+00	0	2
1.258925E+00	0.0000E+00	0.0000E+00	3.156600E+01	9.3127E-02	-2.8693E-02	0.0000E+00	0	2
1.000000E+00	0.0000E+00	0.0000E+00	3.547900E+01	9.7847E-02	-3.1642E-02	0.0000E+00	0	2
7.943282E-01	0.0000E+00	0.0000E+00	4.031700E+01	1.0453E-01	-3.4522E-02	0.0000E+00	0	2
6.309574E-01	0.0000E+00	0.0000E+00	4.631400E+01	1.1181E-01	-3.6517E-02	0.0000E+00	0	2
5.011872E-01	0.0000E+00	0.0000E+00	5.377500E+01	1.1950E-01	-3.7247E-02	0.0000E+00	0	2
3.981072E-01	0.0000E+00	0.0000E+00	6.308000E+01	1.2732E-01	-3.6114E-02	0.0000E+00	0	2
3.162278E-01	0.0000E+00	0.0000E+00	7.470800E+01	1.3416E-01	-3.3878E-02	0.0000E+00	0	2
2.511886E-01	0.0000E+00	0.0000E+00	8.925300E+01	1.4023E-01	-3.1052E-02	0.0000E+00	0	2
1.995262E-01	0.0000E+00	0.0000E+00	1.074780E+02	1.4482E-01	-2.7724E-02	0.0000E+00	0	2
1.584893E-01	0.0000E+00	0.0000E+00	1.303350E+02	1.4844E-01	-2.4592E-02	0.0000E+00	0	2
1.258925E-01	0.0000E+00	0.0000E+00	1.590250E+02	1.5138E-01	-2.1548E-02	0.0000E+00	0	2
1.000000E-01	0.0000E+00	0.0000E+00	1.954460E+02	1.5375E-01	-1.8808E-02	0.0000E+00	0	2
7.943282E-02	0.0000E+00	0.0000E+00	2.411080E+02	1.5528E-01	-1.6826E-02	0.0000E+00	0	2
6.309573E-02	0.0000E+00	0.0000E+00	2.983950E+02	1.5666E-01	-1.5560E-02	0.0000E+00	0	2
5.011872E-02	0.0000E+00	0.0000E+00	3.703260E+02	1.5778E-01	-1.4255E-02	0.0000E+00	0	2
3.981072E-02	0.0000E+00	0.0000E+00	4.606860E+02	1.5886E-01	-1.4377E-02	0.0000E+00	0	2
3.162277E-02	0.0000E+00	0.0000E+00	5.742480E+02	1.6002E-01	-1.4711E-02	0.0000E+00	0	2
2.511887E-02	0.0000E+00	0.0000E+00	7.170230E+02	1.6077E-01	-1.4989E-02	0.0000E+00	0	2
1.995262E-02	0.0000E+00	0.0000E+00	8.965730E+02	1.6207E-01	-1.6184E-02	0.0000E+00	0	2
1.584893E-02	0.0000E+00	0.0000E+00	1.122420E+03	1.6348E-01	-1.7644E-02	0.0000E+00	0	2
1.258925E-02	0.0000E+00	0.0000E+00	1.406550E+03	1.6493E-01	-1.9906E-02	0.0000E+00	0	2
1.000000E-02	0.0000E+00	0.0000E+00	1.764555E+03	1.6673E-01	-2.2226E-02	0.0000E+00	0	2
