ZPLOT2 ASCII
  Measured Data, VersaStudio:   2.60.6.0
  Experiment Type:            Sweep Frequency, Control Voltage
  Date:                       8-21-2020
  Time:                       14:2:3
  Open Circuit Potential (V): 0
  Begin User Comments:        0
  End User Comments:          0
  Begin Experiment:           0
  End Experiment:             0
  Begin Pstat/Gstat:          VersaSTAT3
  End Pstat/Gstat:            VersaSTAT3
  Begin Analyzer:             0
  End Analyzer:               0
  Begin Information:          Cell Information
    Surface Area:             1
    Density:                  0
    Weight:                   0
    Polarity:                 0
    PolarityI:                0
    Corrosion Unit Type:      0
    Reference Type:           0
    Reference Potential:      0
    User-Defined Potential:   0
    Stern-Geary:              26
  End Information:            Cell Information
  Null Configuration:         0,3,0,1,100000,0.1
  Data Points:                60
  Freq(Hz)	Ampl	Bias	Time(Sec)	Z'(a)	Z''(b)	GD	Err	Range
End Comments
1.000000E+04	0.0000E+00	0.0000E+00	5.510000E+00	6.7728E-02	2.4864E-02	0.0000E+00	0	2
7.943282E+03	0.0000E+00	0.0000E+00	6.556000E+00	6.6866E-02	1.9637E-02	0.0000E+00	0	2
6.309573E+03	0.0000E+00	0.0000E+00	6.849000E+00	6.6513E-02	1.5618E-02	0.0000E+00	0	2
5.011873E+03	0.0000E+00	0.0000E+00	7.123000E+00	6.6208E-02	1.2220E-02	0.0000E+00	0	2
3.981072E+03	0.0000E+00	0.0000E+00	7.395000E+00	6.6123E-02	9.4318E-03	0.0000E+00	0	2
3.162278E+03	0.0000E+00	0.0000E+00	7.685000E+00	6.6079E-02	7.1401E-03	0.0000E+00	0	2
2.511886E+03	0.0000E+00	0.0000E+00	7.959000E+00	6.6228E-02	5.0438E-03	0.0000E+00	0	2
1.995262E+03	0.0000E+00	0.0000E+00	8.228000E+00	6.6332E-02	3.5061E-03	0.0000E+00	0	2
1.584893E+03	0.0000E+00	0.0000E+00	8.573000E+00	6.6667E-02	2.1195E-03	0.0000E+00	0	2
1.258925E+03	0.0000E+00	0.0000E+00	8.991000E+00	6.7004E-02	8.4341E-04	0.0000E+00	0	2
1.000000E+03	0.0000E+00	0.0000E+00	9.285000E+00	6.7300E-02	-4.4859E-05	0.0000E+00	0	2
7.943282E+02	0.0000E+00	0.0000E+00	9.595000E+00	6.7968E-02	-1.1081E-03	0.0000E+00	0	2
6.309573E+02	0.0000E+00	0.0000E+00	9.880000E+00	6.8328E-02	-1.5198E-03	0.0000E+00	0	2
5.011872E+02	0.0000E+00	0.0000E+00	1.021300E+01	6.8997E-02	-2.1031E-03	0.0000E+00	0	2
3.981072E+02	0.0000E+00	0.0000E+00	1.051700E+01	6.9124E-02	-2.5072E-03	0.0000E+00	0	2
3.162278E+02	0.0000E+00	0.0000E+00	1.080200E+01	6.9725E-02	-2.7830E-03	0.0000E+00	0	2
2.511886E+02	0.0000E+00	0.0000E+00	1.118500E+01	7.0129E-02	-3.0818E-03	0.0000E+00	0	2
1.995262E+02	0.0000E+00	0.0000E+00	1.148700E+01	7.0931E-02	-3.5559E-03	0.0000E+00	0	2
1.584893E+02	0.0000E+00	0.0000E+00	1.180000E+01	7.1748E-02	-3.8200E-03	0.0000E+00	0	2
1.258925E+02	0.0000E+00	0.0000E+00	1.218900E+01	7.2228E-02	-4.0574E-03	0.0000E+00	0	2
1.000000E+02	0.0000E+00	0.0000E+00	1.254700E+01	7.2904E-02	-4.3650E-03	0.0000E+00	0	2
7.943282E+01	0.0000E+00	0.0000E+00	1.297300E+01	7.3575E-02	-4.5180E-03	0.0000E+00	0	2
6.309573E+01	0.0000E+00	0.0000E+00	1.333100E+01	7.4236E-02	-4.6386E-03	0.0000E+00	0	2
5.011872E+01	0.0000E+00	0.0000E+00	1.371500E+01	7.4907E-02	-4.6262E-03	0.0000E+00	0	2
3.162278E+01	0.0000E+00	0.0000E+00	1.449700E+01	7.6362E-02	-5.1448E-03	0.0000E+00	0	2
2.511886E+01	0.0000E+00	0.0000E+00	1.488000E+01	7.7032E-02	-5.3206E-03	0.0000E+00	0	2
1.995262E+01	0.0000E+00	0.0000E+00	1.530500E+01	7.7355E-02	-5.5521E-03	0.0000E+00	0	2
1.584893E+01	0.0000E+00	0.0000E+00	1.577500E+01	7.7984E-02	-6.0964E-03	0.0000E+00	0	2
1.258925E+01	0.0000E+00	0.0000E+00	1.630500E+01	7.8563E-02	-6.3831E-03	0.0000E+00	0	2
1.000000E+01	0.0000E+00	0.0000E+00	1.690500E+01	7.9046E-02	-7.1546E-03	0.0000E+00	0	2
7.943282E+00	0.0000E+00	0.0000E+00	1.760100E+01	7.9466E-02	-8.1197E-03	0.0000E+00	0	2
6.309574E+00	0.0000E+00	0.0000E+00	1.841600E+01	8.0669E-02	-9.4561E-03	0.0000E+00	0	2
5.011872E+00	0.0000E+00	0.0000E+00	1.937700E+01	8.1132E-02	-1.0874E-02	0.0000E+00	0	2
3.981072E+00	0.0000E+00	0.0000E+00	2.052100E+01	8.2079E-02	-1.3129E-02	0.0000E+00	0	2
3.162278E+00	0.0000E+00	0.0000E+00	2.190400E+01	8.3470E-02	-1.5436E-02	0.0000E+00	0	2
2.511886E+00	0.0000E+00	0.0000E+00	2.357900E+01	8.5124E-02	-1.8185E-02	0.0000E+00	0	2
1.995262E+00	0.0000E+00	0.0000E+00	2.562600E+01	8.7902E-02	-2.1408E-02	0.0000E+00	0	2
1.584893E+00	0.0000E+00	0.0000E+00	2.813800E+01	9.1242E-02	-2.4993E-02	0.0000E+00	0	2
1.258925E+00	0.0000E+00	0.0000E+00	3.124600E+01	9.5191E-02	-2.8468E-02	0.0000E+00	0	2
1.000000E+00	0.0000E+00	0.0000E+00	3.516000E+01	1.0057E-01	-3.1868E-02	0.0000E+00	0	2
7.943282E-01	0.0000E+00	0.0000E+00	3.999800E+01	1.0688E-01	-3.4599E-02	0.0000E+00	0	2
6.309574E-01	0.0000E+00	0.0000E+00	4.600000E+01	1.1411E-01	-3.6230E-02	0.0000E+00	0	2
5.011872E-01	0.0000E+00	0.0000E+00	5.346000E+01	1.2191E-01	-3.6593E-02	0.0000E+00	0	2
3.981072E-01	0.0000E+00	0.0000E+00	6.276500E+01	1.2944E-01	-3.5665E-02	0.0000E+00	0	2
3.162278E-01	0.0000E+00	0.0000E+00	7.439200E+01	1.3661E-01	-3.3256E-02	0.0000E+00	0	2
2.511886E-01	0.0000E+00	0.0000E+00	8.894000E+01	1.4207E-01	-3.0263E-02	0.0000E+00	0	2
1.995262E-01	0.0000E+00	0.0000E+00	1.071670E+02	1.4673E-01	-2.7392E-02	0.0000E+00	0	2
1.584893E-01	0.0000E+00	0.0000E+00	1.300230E+02	1.5040E-01	-2.3921E-02	0.0000E+00	0	2
1.258925E-01	0.0000E+00	0.0000E+00	1.587110E+02	1.5272E-01	-2.0902E-02	0.0000E+00	0	2
1.000000E-01	0.0000E+00	0.0000E+00	1.951320E+02	1.5527E-01	-1.8786E-02	0.0000E+00	0	2
7.943282E-02	0.0000E+00	0.0000E+00	2.407910E+02	1.5681E-01	-1.7010E-02	0.0000E+00	0	2
6.309573E-02	0.0000E+00	0.0000E+00	2.980800E+02	1.5839E-01	-1.5095E-02	0.0000E+00	0	2
5.011872E-02	0.0000E+00	0.0000E+00	3.700090E+02	1.6013E-01	-1.4562E-02	0.0000E+00	0	2
3.981072E-02	0.0000E+00	0.0000E+00	4.603670E+02	1.6100E-01	-1.4179E-02	0.0000E+00	0	2
3.162277E-02	0.0000E+00	0.0000E+00	5.739240E+02	1.6232E-01	-1.4607E-02	0.0000E+00	0	2
2.511887E-02	0.0000E+00	0.0000E+00	7.166960E+02	1.6385E-01	-1.5056E-02	0.0000E+00	0	2
1.995262E-02	0.0000E+00	0.0000E+00	8.962430E+02	1.6487E-01	-1.6209E-02	0.0000E+00	0	2
1.584893E-02	0.0000E+00	0.0000E+00	1.122091E+03	1.6675E-01	-1.7664E-02	0.0000E+00	0	2
1.258925E-02	0.0000E+00	0.0000E+00	1.406219E+03	1.6832E-01	-1.9999E-02	0.0000E+00	0	2
1.000000E-02	0.0000E+00	0.0000E+00	1.764223E+03	1.7041E-01	-2.2575E-02	0.0000E+00	0	2
