ZPLOT2 ASCII
  Measured Data, VersaStudio:   2.60.6.0
  Experiment Type:            Sweep Frequency, Control Voltage
  Date:                       8-21-2020
  Time:                       9:18:48
  Open Circuit Potential (V): 0
  Begin User Comments:        0
  End User Comments:          0
  Begin Experiment:           0
  End Experiment:             0
  Begin Pstat/Gstat:          VersaSTAT3
  End Pstat/Gstat:            VersaSTAT3
  Begin Analyzer:             0
  End Analyzer:               0
  Begin Information:          Cell Information
    Surface Area:             1
    Density:                  0
    Weight:                   0
    Polarity:                 0
    PolarityI:                0
    Corrosion Unit Type:      0
    Reference Type:           0
    Reference Potential:      0
    User-Defined Potential:   0
    Stern-Geary:              26
  End Information:            Cell Information
  Null Configuration:         0,3,0,1,100000,0.1
  Data Points:                60
  Freq(Hz)	Ampl	Bias	Time(Sec)	Z'(a)	Z''(b)	GD	Err	Range
End Comments
1.000000E+04	0.0000E+00	0.0000E+00	5.520000E+00	6.5226E-02	2.4963E-02	0.0000E+00	0	2
7.943282E+03	0.0000E+00	0.0000E+00	6.930000E+00	6.4295E-02	1.9853E-02	0.0000E+00	0	2
6.309573E+03	0.0000E+00	0.0000E+00	7.220000E+00	6.3957E-02	1.6026E-02	0.0000E+00	0	2
5.011873E+03	0.0000E+00	0.0000E+00	7.496000E+00	6.3740E-02	1.2523E-02	0.0000E+00	0	2
3.981072E+03	0.0000E+00	0.0000E+00	7.769000E+00	6.3571E-02	9.5283E-03	0.0000E+00	0	2
3.162278E+03	0.0000E+00	0.0000E+00	8.057000E+00	6.3561E-02	7.1370E-03	0.0000E+00	0	2
2.511886E+03	0.0000E+00	0.0000E+00	8.333000E+00	6.3676E-02	5.0564E-03	0.0000E+00	0	2
1.995262E+03	0.0000E+00	0.0000E+00	8.717000E+00	6.3893E-02	3.5101E-03	0.0000E+00	0	2
1.584893E+03	0.0000E+00	0.0000E+00	9.126000E+00	6.4182E-02	2.0396E-03	0.0000E+00	0	2
1.258925E+03	0.0000E+00	0.0000E+00	9.538000E+00	6.4574E-02	8.4060E-04	0.0000E+00	0	2
1.000000E+03	0.0000E+00	0.0000E+00	9.832000E+00	6.5242E-02	-1.6566E-04	0.0000E+00	0	2
7.943282E+02	0.0000E+00	0.0000E+00	1.014200E+01	6.5409E-02	-1.0721E-03	0.0000E+00	0	2
6.309573E+02	0.0000E+00	0.0000E+00	1.042400E+01	6.5712E-02	-1.3906E-03	0.0000E+00	0	2
5.011872E+02	0.0000E+00	0.0000E+00	1.075700E+01	6.6295E-02	-2.2704E-03	0.0000E+00	0	2
3.981072E+02	0.0000E+00	0.0000E+00	1.105700E+01	6.6772E-02	-2.6239E-03	0.0000E+00	0	2
3.162278E+02	0.0000E+00	0.0000E+00	1.134400E+01	6.7255E-02	-2.9664E-03	0.0000E+00	0	2
2.511886E+02	0.0000E+00	0.0000E+00	1.172200E+01	6.7719E-02	-3.4185E-03	0.0000E+00	0	2
1.995262E+02	0.0000E+00	0.0000E+00	1.202400E+01	6.8588E-02	-3.5290E-03	0.0000E+00	0	2
1.258925E+02	0.0000E+00	0.0000E+00	1.272700E+01	6.9742E-02	-4.0967E-03	0.0000E+00	0	2
1.000000E+02	0.0000E+00	0.0000E+00	1.308200E+01	7.0544E-02	-4.2459E-03	0.0000E+00	0	2
7.943282E+01	0.0000E+00	0.0000E+00	1.351200E+01	7.1237E-02	-4.5860E-03	0.0000E+00	0	2
6.309573E+01	0.0000E+00	0.0000E+00	1.387000E+01	7.2215E-02	-4.5770E-03	0.0000E+00	0	2
5.011872E+01	0.0000E+00	0.0000E+00	1.425500E+01	7.2902E-02	-4.7601E-03	0.0000E+00	0	2
3.981072E+01	0.0000E+00	0.0000E+00	1.468500E+01	7.3218E-02	-4.9258E-03	0.0000E+00	0	2
3.162278E+01	0.0000E+00	0.0000E+00	1.504000E+01	7.3634E-02	-5.2937E-03	0.0000E+00	0	2
2.511886E+01	0.0000E+00	0.0000E+00	1.542800E+01	7.4712E-02	-5.4369E-03	0.0000E+00	0	2
1.995262E+01	0.0000E+00	0.0000E+00	1.585700E+01	7.4979E-02	-5.8766E-03	0.0000E+00	0	2
1.584893E+01	0.0000E+00	0.0000E+00	1.632400E+01	7.5735E-02	-6.2376E-03	0.0000E+00	0	2
1.258925E+01	0.0000E+00	0.0000E+00	1.685200E+01	7.6263E-02	-6.5356E-03	0.0000E+00	0	2
1.000000E+01	0.0000E+00	0.0000E+00	1.745400E+01	7.6837E-02	-7.3391E-03	0.0000E+00	0	2
7.943282E+00	0.0000E+00	0.0000E+00	1.814900E+01	7.7450E-02	-8.1303E-03	0.0000E+00	0	2
6.309574E+00	0.0000E+00	0.0000E+00	1.896500E+01	7.8057E-02	-9.1925E-03	0.0000E+00	0	2
5.011872E+00	0.0000E+00	0.0000E+00	1.992400E+01	7.9156E-02	-1.1088E-02	0.0000E+00	0	2
3.981072E+00	0.0000E+00	0.0000E+00	2.107400E+01	8.0127E-02	-1.3067E-02	0.0000E+00	0	2
3.162278E+00	0.0000E+00	0.0000E+00	2.246000E+01	8.1264E-02	-1.5293E-02	0.0000E+00	0	2
2.511886E+00	0.0000E+00	0.0000E+00	2.413800E+01	8.3111E-02	-1.8113E-02	0.0000E+00	0	2
1.995262E+00	0.0000E+00	0.0000E+00	2.618900E+01	8.5465E-02	-2.1519E-02	0.0000E+00	0	2
1.584893E+00	0.0000E+00	0.0000E+00	2.870600E+01	8.8706E-02	-2.4768E-02	0.0000E+00	0	2
1.258925E+00	0.0000E+00	0.0000E+00	3.181400E+01	9.3049E-02	-2.8428E-02	0.0000E+00	0	2
1.000000E+00	0.0000E+00	0.0000E+00	3.573100E+01	9.7884E-02	-3.1844E-02	0.0000E+00	0	2
7.943282E-01	0.0000E+00	0.0000E+00	4.056700E+01	1.0463E-01	-3.4524E-02	0.0000E+00	0	2
6.309574E-01	0.0000E+00	0.0000E+00	4.657100E+01	1.1168E-01	-3.6358E-02	0.0000E+00	0	2
5.011872E-01	0.0000E+00	0.0000E+00	5.403500E+01	1.1976E-01	-3.6508E-02	0.0000E+00	0	2
3.981072E-01	0.0000E+00	0.0000E+00	6.334000E+01	1.2703E-01	-3.5852E-02	0.0000E+00	0	2
3.162278E-01	0.0000E+00	0.0000E+00	7.496400E+01	1.3375E-01	-3.3657E-02	0.0000E+00	0	2
2.511886E-01	0.0000E+00	0.0000E+00	8.951000E+01	1.3973E-01	-3.0705E-02	0.0000E+00	0	2
1.995262E-01	0.0000E+00	0.0000E+00	1.077390E+02	1.4465E-01	-2.7525E-02	0.0000E+00	0	2
1.584893E-01	0.0000E+00	0.0000E+00	1.305990E+02	1.4785E-01	-2.4439E-02	0.0000E+00	0	2
1.258925E-01	0.0000E+00	0.0000E+00	1.592860E+02	1.5072E-01	-2.1193E-02	0.0000E+00	0	2
1.000000E-01	0.0000E+00	0.0000E+00	1.957050E+02	1.5272E-01	-1.8784E-02	0.0000E+00	0	2
7.943282E-02	0.0000E+00	0.0000E+00	2.413690E+02	1.5424E-01	-1.6675E-02	0.0000E+00	0	2
6.309573E-02	0.0000E+00	0.0000E+00	2.986610E+02	1.5578E-01	-1.5606E-02	0.0000E+00	0	2
5.011872E-02	0.0000E+00	0.0000E+00	3.705950E+02	1.5652E-01	-1.4829E-02	0.0000E+00	0	2
3.981072E-02	0.0000E+00	0.0000E+00	4.609530E+02	1.5776E-01	-1.4592E-02	0.0000E+00	0	2
3.162277E-02	0.0000E+00	0.0000E+00	5.745140E+02	1.5801E-01	-1.4612E-02	0.0000E+00	0	2
2.511887E-02	0.0000E+00	0.0000E+00	7.172880E+02	1.5961E-01	-1.5316E-02	0.0000E+00	0	2
1.995262E-02	0.0000E+00	0.0000E+00	8.968380E+02	1.6071E-01	-1.6001E-02	0.0000E+00	0	2
1.584893E-02	0.0000E+00	0.0000E+00	1.122684E+03	1.6236E-01	-1.7733E-02	0.0000E+00	0	2
1.258925E-02	0.0000E+00	0.0000E+00	1.406809E+03	1.6404E-01	-1.9897E-02	0.0000E+00	0	2
1.000000E-02	0.0000E+00	0.0000E+00	1.764816E+03	1.6552E-01	-2.2345E-02	0.0000E+00	0	2
