ZPLOT2 ASCII
  Measured Data, VersaStudio:   2.60.6.0
  Experiment Type:            Sweep Frequency, Control Voltage
  Date:                       8-21-2020
  Time:                       9:43:50
  Open Circuit Potential (V): 0
  Begin User Comments:        0
  End User Comments:          0
  Begin Experiment:           0
  End Experiment:             0
  Begin Pstat/Gstat:          VersaSTAT3
  End Pstat/Gstat:            VersaSTAT3
  Begin Analyzer:             0
  End Analyzer:               0
  Begin Information:          Cell Information
    Surface Area:             1
    Density:                  0
    Weight:                   0
    Polarity:                 0
    PolarityI:                0
    Corrosion Unit Type:      0
    Reference Type:           0
    Reference Potential:      0
    User-Defined Potential:   0
    Stern-Geary:              26
  End Information:            Cell Information
  Null Configuration:         0,3,0,1,100000,0.1
  Data Points:                58
  Freq(Hz)	Ampl	Bias	Time(Sec)	Z'(a)	Z''(b)	GD	Err	Range
End Comments
1.000000E+04	0.0000E+00	0.0000E+00	5.514000E+00	6.5315E-02	2.4993E-02	0.0000E+00	0	2
7.943282E+03	0.0000E+00	0.0000E+00	7.044000E+00	6.4437E-02	2.0076E-02	0.0000E+00	0	2
6.309573E+03	0.0000E+00	0.0000E+00	7.337000E+00	6.4031E-02	1.6185E-02	0.0000E+00	0	2
5.011873E+03	0.0000E+00	0.0000E+00	7.611000E+00	6.3663E-02	1.2625E-02	0.0000E+00	0	2
3.981072E+03	0.0000E+00	0.0000E+00	7.881000E+00	6.3482E-02	9.5857E-03	0.0000E+00	0	2
3.162278E+03	0.0000E+00	0.0000E+00	8.170000E+00	6.3872E-02	7.2052E-03	0.0000E+00	0	2
2.511886E+03	0.0000E+00	0.0000E+00	8.570000E+00	6.4158E-02	5.0767E-03	0.0000E+00	0	2
1.995262E+03	0.0000E+00	0.0000E+00	8.955000E+00	6.4396E-02	3.5699E-03	0.0000E+00	0	2
1.584893E+03	0.0000E+00	0.0000E+00	9.364000E+00	6.4659E-02	2.0878E-03	0.0000E+00	0	2
1.258925E+03	0.0000E+00	0.0000E+00	9.781000E+00	6.4837E-02	9.0574E-04	0.0000E+00	0	2
7.943282E+02	0.0000E+00	0.0000E+00	1.038400E+01	6.5000E-02	-8.1589E-04	0.0000E+00	0	2
6.309573E+02	0.0000E+00	0.0000E+00	1.067000E+01	6.5725E-02	-1.6486E-03	0.0000E+00	0	2
5.011872E+02	0.0000E+00	0.0000E+00	1.100100E+01	6.5907E-02	-2.1033E-03	0.0000E+00	0	2
3.981072E+02	0.0000E+00	0.0000E+00	1.130300E+01	6.6605E-02	-2.7191E-03	0.0000E+00	0	2
2.511886E+02	0.0000E+00	0.0000E+00	1.196300E+01	6.7917E-02	-3.1722E-03	0.0000E+00	0	2
1.995262E+02	0.0000E+00	0.0000E+00	1.226400E+01	6.8550E-02	-3.6271E-03	0.0000E+00	0	2
1.584893E+02	0.0000E+00	0.0000E+00	1.258000E+01	6.8910E-02	-3.9511E-03	0.0000E+00	0	2
1.258925E+02	0.0000E+00	0.0000E+00	1.297000E+01	6.9495E-02	-4.0489E-03	0.0000E+00	0	2
1.000000E+02	0.0000E+00	0.0000E+00	1.332300E+01	7.0552E-02	-4.3617E-03	0.0000E+00	0	2
7.943282E+01	0.0000E+00	0.0000E+00	1.375300E+01	7.0884E-02	-4.3597E-03	0.0000E+00	0	2
6.309573E+01	0.0000E+00	0.0000E+00	1.411000E+01	7.1841E-02	-4.7061E-03	0.0000E+00	0	2
5.011872E+01	0.0000E+00	0.0000E+00	1.449300E+01	7.2689E-02	-4.6624E-03	0.0000E+00	0	2
3.981072E+01	0.0000E+00	0.0000E+00	1.492000E+01	7.3388E-02	-4.9590E-03	0.0000E+00	0	2
3.162278E+01	0.0000E+00	0.0000E+00	1.527600E+01	7.4039E-02	-5.1284E-03	0.0000E+00	0	2
2.511886E+01	0.0000E+00	0.0000E+00	1.566000E+01	7.4745E-02	-5.5339E-03	0.0000E+00	0	2
1.995262E+01	0.0000E+00	0.0000E+00	1.608700E+01	7.5088E-02	-5.6949E-03	0.0000E+00	0	2
1.584893E+01	0.0000E+00	0.0000E+00	1.655900E+01	7.5774E-02	-6.0734E-03	0.0000E+00	0	2
1.258925E+01	0.0000E+00	0.0000E+00	1.708700E+01	7.6355E-02	-6.6514E-03	0.0000E+00	0	2
1.000000E+01	0.0000E+00	0.0000E+00	1.768900E+01	7.6725E-02	-7.3043E-03	0.0000E+00	0	2
7.943282E+00	0.0000E+00	0.0000E+00	1.838500E+01	7.7415E-02	-8.2654E-03	0.0000E+00	0	2
6.309574E+00	0.0000E+00	0.0000E+00	1.920000E+01	7.8176E-02	-9.3237E-03	0.0000E+00	0	2
5.011872E+00	0.0000E+00	0.0000E+00	2.016000E+01	7.8998E-02	-1.0786E-02	0.0000E+00	0	2
3.981072E+00	0.0000E+00	0.0000E+00	2.130800E+01	8.0010E-02	-1.2855E-02	0.0000E+00	0	2
3.162278E+00	0.0000E+00	0.0000E+00	2.269500E+01	8.1295E-02	-1.5420E-02	0.0000E+00	0	2
2.511886E+00	0.0000E+00	0.0000E+00	2.437200E+01	8.2999E-02	-1.8114E-02	0.0000E+00	0	2
1.995262E+00	0.0000E+00	0.0000E+00	2.641900E+01	8.5356E-02	-2.1523E-02	0.0000E+00	0	2
1.584893E+00	0.0000E+00	0.0000E+00	2.893300E+01	8.8580E-02	-2.4617E-02	0.0000E+00	0	2
1.258925E+00	0.0000E+00	0.0000E+00	3.204100E+01	9.2877E-02	-2.8445E-02	0.0000E+00	0	2
1.000000E+00	0.0000E+00	0.0000E+00	3.595400E+01	9.7784E-02	-3.1392E-02	0.0000E+00	0	2
7.943282E-01	0.0000E+00	0.0000E+00	4.079800E+01	1.0463E-01	-3.4128E-02	0.0000E+00	0	2
6.309574E-01	0.0000E+00	0.0000E+00	4.680000E+01	1.1160E-01	-3.6045E-02	0.0000E+00	0	2
5.011872E-01	0.0000E+00	0.0000E+00	5.426200E+01	1.1930E-01	-3.6422E-02	0.0000E+00	0	2
3.981072E-01	0.0000E+00	0.0000E+00	6.356800E+01	1.2660E-01	-3.5394E-02	0.0000E+00	0	2
3.162278E-01	0.0000E+00	0.0000E+00	7.519500E+01	1.3328E-01	-3.2967E-02	0.0000E+00	0	2
2.511886E-01	0.0000E+00	0.0000E+00	8.974600E+01	1.3925E-01	-3.0054E-02	0.0000E+00	0	2
1.995262E-01	0.0000E+00	0.0000E+00	1.079700E+02	1.4343E-01	-2.6817E-02	0.0000E+00	0	2
1.584893E-01	0.0000E+00	0.0000E+00	1.308280E+02	1.4728E-01	-2.3885E-02	0.0000E+00	0	2
1.258925E-01	0.0000E+00	0.0000E+00	1.595100E+02	1.5023E-01	-2.0794E-02	0.0000E+00	0	2
1.000000E-01	0.0000E+00	0.0000E+00	1.959290E+02	1.5218E-01	-1.8657E-02	0.0000E+00	0	2
7.943282E-02	0.0000E+00	0.0000E+00	2.415870E+02	1.5374E-01	-1.6644E-02	0.0000E+00	0	2
6.309573E-02	0.0000E+00	0.0000E+00	2.988790E+02	1.5507E-01	-1.5473E-02	0.0000E+00	0	2
5.011872E-02	0.0000E+00	0.0000E+00	3.708080E+02	1.5604E-01	-1.4172E-02	0.0000E+00	0	2
3.981072E-02	0.0000E+00	0.0000E+00	4.611640E+02	1.5687E-01	-1.4066E-02	0.0000E+00	0	2
3.162277E-02	0.0000E+00	0.0000E+00	5.747260E+02	1.5801E-01	-1.4301E-02	0.0000E+00	0	2
2.511887E-02	0.0000E+00	0.0000E+00	7.175010E+02	1.5886E-01	-1.4895E-02	0.0000E+00	0	2
1.995262E-02	0.0000E+00	0.0000E+00	8.970490E+02	1.6065E-01	-1.5999E-02	0.0000E+00	0	2
1.258925E-02	0.0000E+00	0.0000E+00	1.407020E+03	1.6459E-01	-1.9763E-02	0.0000E+00	0	2
1.000000E-02	0.0000E+00	0.0000E+00	1.765025E+03	1.6646E-01	-2.2252E-02	0.0000E+00	0	2
