ZPLOT2 ASCII
  Measured Data, VersaStudio:   2.60.6.0
  Experiment Type:            Sweep Frequency, Control Voltage
  Date:                       8-21-2020
  Time:                       10:11:29
  Open Circuit Potential (V): 0
  Begin User Comments:        0
  End User Comments:          0
  Begin Experiment:           0
  End Experiment:             0
  Begin Pstat/Gstat:          VersaSTAT3
  End Pstat/Gstat:            VersaSTAT3
  Begin Analyzer:             0
  End Analyzer:               0
  Begin Information:          Cell Information
    Surface Area:             1
    Density:                  0
    Weight:                   0
    Polarity:                 0
    PolarityI:                0
    Corrosion Unit Type:      0
    Reference Type:           0
    Reference Potential:      0
    User-Defined Potential:   0
    Stern-Geary:              26
  End Information:            Cell Information
  Null Configuration:         0,3,0,1,100000,0.1
  Data Points:                57
  Freq(Hz)	Ampl	Bias	Time(Sec)	Z'(a)	Z''(b)	GD	Err	Range
End Comments
1.000000E+04	0.0000E+00	0.0000E+00	5.516000E+00	6.6290E-02	2.4849E-02	0.0000E+00	0	2
7.943282E+03	0.0000E+00	0.0000E+00	6.621000E+00	6.5522E-02	1.9592E-02	0.0000E+00	0	2
6.309573E+03	0.0000E+00	0.0000E+00	6.910000E+00	6.4967E-02	1.5642E-02	0.0000E+00	0	2
5.011873E+03	0.0000E+00	0.0000E+00	7.187000E+00	6.4701E-02	1.2113E-02	0.0000E+00	0	2
3.981072E+03	0.0000E+00	0.0000E+00	7.459000E+00	6.4523E-02	9.3168E-03	0.0000E+00	0	2
3.162278E+03	0.0000E+00	0.0000E+00	7.746000E+00	6.4551E-02	7.1100E-03	0.0000E+00	0	2
2.511886E+03	0.0000E+00	0.0000E+00	8.023000E+00	6.4693E-02	5.0259E-03	0.0000E+00	0	2
1.995262E+03	0.0000E+00	0.0000E+00	8.289000E+00	6.4847E-02	3.4729E-03	0.0000E+00	0	2
1.584893E+03	0.0000E+00	0.0000E+00	8.570000E+00	6.5248E-02	2.0602E-03	0.0000E+00	0	2
1.258925E+03	0.0000E+00	0.0000E+00	8.986000E+00	6.5509E-02	8.9774E-04	0.0000E+00	0	2
1.000000E+03	0.0000E+00	0.0000E+00	9.279000E+00	6.6278E-02	-2.1927E-04	0.0000E+00	0	2
7.943282E+02	0.0000E+00	0.0000E+00	9.587000E+00	6.6316E-02	-9.4047E-04	0.0000E+00	0	2
6.309573E+02	0.0000E+00	0.0000E+00	9.868000E+00	6.6773E-02	-1.7623E-03	0.0000E+00	0	2
5.011872E+02	0.0000E+00	0.0000E+00	1.020100E+01	6.7090E-02	-2.1451E-03	0.0000E+00	0	2
3.981072E+02	0.0000E+00	0.0000E+00	1.050000E+01	6.7768E-02	-2.6816E-03	0.0000E+00	0	2
3.162278E+02	0.0000E+00	0.0000E+00	1.078300E+01	6.8544E-02	-2.8401E-03	0.0000E+00	0	2
1.995262E+02	0.0000E+00	0.0000E+00	1.145900E+01	6.9618E-02	-3.3651E-03	0.0000E+00	0	2
1.000000E+02	0.0000E+00	0.0000E+00	1.251800E+01	7.1592E-02	-4.0668E-03	0.0000E+00	0	2
7.943282E+01	0.0000E+00	0.0000E+00	1.294500E+01	7.2527E-02	-4.4195E-03	0.0000E+00	0	2
6.309573E+01	0.0000E+00	0.0000E+00	1.330100E+01	7.2758E-02	-4.7505E-03	0.0000E+00	0	2
5.011872E+01	0.0000E+00	0.0000E+00	1.368700E+01	7.3478E-02	-4.7280E-03	0.0000E+00	0	2
3.981072E+01	0.0000E+00	0.0000E+00	1.411100E+01	7.4087E-02	-5.0006E-03	0.0000E+00	0	2
3.162278E+01	0.0000E+00	0.0000E+00	1.446300E+01	7.5002E-02	-4.8649E-03	0.0000E+00	0	2
1.995262E+01	0.0000E+00	0.0000E+00	1.527500E+01	7.6264E-02	-5.6072E-03	0.0000E+00	0	2
1.584893E+01	0.0000E+00	0.0000E+00	1.574400E+01	7.6536E-02	-6.1767E-03	0.0000E+00	0	2
1.258925E+01	0.0000E+00	0.0000E+00	1.627100E+01	7.7023E-02	-6.6654E-03	0.0000E+00	0	2
1.000000E+01	0.0000E+00	0.0000E+00	1.687300E+01	7.7824E-02	-7.1948E-03	0.0000E+00	0	2
7.943282E+00	0.0000E+00	0.0000E+00	1.756400E+01	7.8087E-02	-8.2070E-03	0.0000E+00	0	2
6.309574E+00	0.0000E+00	0.0000E+00	1.837800E+01	7.8948E-02	-9.2089E-03	0.0000E+00	0	2
5.011872E+00	0.0000E+00	0.0000E+00	1.933900E+01	7.9738E-02	-1.0815E-02	0.0000E+00	0	2
3.981072E+00	0.0000E+00	0.0000E+00	2.048600E+01	8.0858E-02	-1.2868E-02	0.0000E+00	0	2
3.162278E+00	0.0000E+00	0.0000E+00	2.187400E+01	8.2222E-02	-1.5367E-02	0.0000E+00	0	2
2.511886E+00	0.0000E+00	0.0000E+00	2.355100E+01	8.3893E-02	-1.8183E-02	0.0000E+00	0	2
1.995262E+00	0.0000E+00	0.0000E+00	2.559400E+01	8.6285E-02	-2.1209E-02	0.0000E+00	0	2
1.584893E+00	0.0000E+00	0.0000E+00	2.810700E+01	8.9370E-02	-2.4839E-02	0.0000E+00	0	2
1.258925E+00	0.0000E+00	0.0000E+00	3.121100E+01	9.3896E-02	-2.8213E-02	0.0000E+00	0	2
1.000000E+00	0.0000E+00	0.0000E+00	3.512600E+01	9.8926E-02	-3.1141E-02	0.0000E+00	0	2
7.943282E-01	0.0000E+00	0.0000E+00	3.996000E+01	1.0531E-01	-3.4124E-02	0.0000E+00	0	2
6.309574E-01	0.0000E+00	0.0000E+00	4.596600E+01	1.1245E-01	-3.5708E-02	0.0000E+00	0	2
5.011872E-01	0.0000E+00	0.0000E+00	5.342900E+01	1.2010E-01	-3.6018E-02	0.0000E+00	0	2
3.981072E-01	0.0000E+00	0.0000E+00	6.273400E+01	1.2779E-01	-3.5303E-02	0.0000E+00	0	2
3.162278E-01	0.0000E+00	0.0000E+00	7.436100E+01	1.3419E-01	-3.3272E-02	0.0000E+00	0	2
2.511886E-01	0.0000E+00	0.0000E+00	8.891000E+01	1.3976E-01	-3.0063E-02	0.0000E+00	0	2
1.995262E-01	0.0000E+00	0.0000E+00	1.071360E+02	1.4469E-01	-2.6606E-02	0.0000E+00	0	2
1.584893E-01	0.0000E+00	0.0000E+00	1.299910E+02	1.4788E-01	-2.3652E-02	0.0000E+00	0	2
1.258925E-01	0.0000E+00	0.0000E+00	1.586730E+02	1.5065E-01	-2.0743E-02	0.0000E+00	0	2
1.000000E-01	0.0000E+00	0.0000E+00	1.950940E+02	1.5293E-01	-1.8285E-02	0.0000E+00	0	2
7.943282E-02	0.0000E+00	0.0000E+00	2.407570E+02	1.5473E-01	-1.6694E-02	0.0000E+00	0	2
6.309573E-02	0.0000E+00	0.0000E+00	2.980480E+02	1.5578E-01	-1.5401E-02	0.0000E+00	0	2
5.011872E-02	0.0000E+00	0.0000E+00	3.699790E+02	1.5674E-01	-1.4285E-02	0.0000E+00	0	2
3.981072E-02	0.0000E+00	0.0000E+00	4.603390E+02	1.5795E-01	-1.4200E-02	0.0000E+00	0	2
3.162277E-02	0.0000E+00	0.0000E+00	5.739020E+02	1.5848E-01	-1.4174E-02	0.0000E+00	0	2
2.511887E-02	0.0000E+00	0.0000E+00	7.166760E+02	1.5953E-01	-1.4886E-02	0.0000E+00	0	2
1.995262E-02	0.0000E+00	0.0000E+00	8.962270E+02	1.6087E-01	-1.5769E-02	0.0000E+00	0	2
1.584893E-02	0.0000E+00	0.0000E+00	1.122074E+03	1.6268E-01	-1.7860E-02	0.0000E+00	0	2
1.258925E-02	0.0000E+00	0.0000E+00	1.406201E+03	1.6411E-01	-1.8987E-02	0.0000E+00	0	2
1.000000E-02	0.0000E+00	0.0000E+00	1.764206E+03	1.6640E-01	-2.2152E-02	0.0000E+00	0	2
