ZPLOT2 ASCII
  Measured Data, VersaStudio:   2.60.6.0
  Experiment Type:            Sweep Frequency, Control Voltage
  Date:                       8-21-2020
  Time:                       10:37:4
  Open Circuit Potential (V): 0
  Begin User Comments:        0
  End User Comments:          0
  Begin Experiment:           0
  End Experiment:             0
  Begin Pstat/Gstat:          VersaSTAT3
  End Pstat/Gstat:            VersaSTAT3
  Begin Analyzer:             0
  End Analyzer:               0
  Begin Information:          Cell Information
    Surface Area:             1
    Density:                  0
    Weight:                   0
    Polarity:                 0
    PolarityI:                0
    Corrosion Unit Type:      0
    Reference Type:           0
    Reference Potential:      0
    User-Defined Potential:   0
    Stern-Geary:              26
  End Information:            Cell Information
  Null Configuration:         0,3,0,1,100000,0.1
  Data Points:                57
  Freq(Hz)	Ampl	Bias	Time(Sec)	Z'(a)	Z''(b)	GD	Err	Range
End Comments
1.000000E+04	0.0000E+00	0.0000E+00	5.517000E+00	6.6111E-02	2.4703E-02	0.0000E+00	0	2
7.943282E+03	0.0000E+00	0.0000E+00	6.563999E+00	6.5289E-02	1.9425E-02	0.0000E+00	0	2
6.309573E+03	0.0000E+00	0.0000E+00	6.852999E+00	6.4922E-02	1.5527E-02	0.0000E+00	0	2
5.011873E+03	0.0000E+00	0.0000E+00	7.126999E+00	6.4558E-02	1.2082E-02	0.0000E+00	0	2
3.981072E+03	0.0000E+00	0.0000E+00	7.400999E+00	6.4451E-02	9.2656E-03	0.0000E+00	0	2
3.162278E+03	0.0000E+00	0.0000E+00	7.688999E+00	6.4566E-02	6.9270E-03	0.0000E+00	0	2
2.511886E+03	0.0000E+00	0.0000E+00	7.967999E+00	6.4714E-02	4.9267E-03	0.0000E+00	0	2
1.995262E+03	0.0000E+00	0.0000E+00	8.233999E+00	6.4774E-02	3.4429E-03	0.0000E+00	0	2
1.584893E+03	0.0000E+00	0.0000E+00	8.517999E+00	6.5093E-02	2.0079E-03	0.0000E+00	0	2
1.258925E+03	0.0000E+00	0.0000E+00	8.868999E+00	6.5418E-02	7.6608E-04	0.0000E+00	0	2
7.943282E+02	0.0000E+00	0.0000E+00	9.471999E+00	6.6268E-02	-9.8473E-04	0.0000E+00	0	2
5.011872E+02	0.0000E+00	0.0000E+00	1.008900E+01	6.7076E-02	-2.0739E-03	0.0000E+00	0	2
3.981072E+02	0.0000E+00	0.0000E+00	1.039600E+01	6.7774E-02	-2.3541E-03	0.0000E+00	0	2
3.162278E+02	0.0000E+00	0.0000E+00	1.067700E+01	6.8572E-02	-2.9048E-03	0.0000E+00	0	2
2.511886E+02	0.0000E+00	0.0000E+00	1.105900E+01	6.9141E-02	-3.2511E-03	0.0000E+00	0	2
1.995262E+02	0.0000E+00	0.0000E+00	1.136000E+01	6.9223E-02	-3.5794E-03	0.0000E+00	0	2
1.258925E+02	0.0000E+00	0.0000E+00	1.206100E+01	7.0576E-02	-4.0567E-03	0.0000E+00	0	2
1.000000E+02	0.0000E+00	0.0000E+00	1.241600E+01	7.1457E-02	-4.3513E-03	0.0000E+00	0	2
7.943282E+01	0.0000E+00	0.0000E+00	1.284600E+01	7.2077E-02	-4.4343E-03	0.0000E+00	0	2
6.309573E+01	0.0000E+00	0.0000E+00	1.320300E+01	7.2878E-02	-4.7039E-03	0.0000E+00	0	2
5.011872E+01	0.0000E+00	0.0000E+00	1.359100E+01	7.3464E-02	-4.7034E-03	0.0000E+00	0	2
3.162278E+01	0.0000E+00	0.0000E+00	1.437500E+01	7.4473E-02	-5.0784E-03	0.0000E+00	0	2
2.511886E+01	0.0000E+00	0.0000E+00	1.476200E+01	7.5486E-02	-5.5253E-03	0.0000E+00	0	2
1.995262E+01	0.0000E+00	0.0000E+00	1.518800E+01	7.6269E-02	-5.6861E-03	0.0000E+00	0	2
1.584893E+01	0.0000E+00	0.0000E+00	1.565600E+01	7.6260E-02	-5.9669E-03	0.0000E+00	0	2
1.258925E+01	0.0000E+00	0.0000E+00	1.618500E+01	7.6808E-02	-6.6251E-03	0.0000E+00	0	2
1.000000E+01	0.0000E+00	0.0000E+00	1.678700E+01	7.7474E-02	-7.5079E-03	0.0000E+00	0	2
7.943282E+00	0.0000E+00	0.0000E+00	1.747700E+01	7.8068E-02	-8.1028E-03	0.0000E+00	0	2
6.309574E+00	0.0000E+00	0.0000E+00	1.829100E+01	7.8998E-02	-9.3945E-03	0.0000E+00	0	2
5.011872E+00	0.0000E+00	0.0000E+00	1.925400E+01	7.9762E-02	-1.1035E-02	0.0000E+00	0	2
3.981072E+00	0.0000E+00	0.0000E+00	2.040100E+01	8.0538E-02	-1.2933E-02	0.0000E+00	0	2
3.162278E+00	0.0000E+00	0.0000E+00	2.178700E+01	8.2032E-02	-1.5358E-02	0.0000E+00	0	2
2.511886E+00	0.0000E+00	0.0000E+00	2.346400E+01	8.3658E-02	-1.7917E-02	0.0000E+00	0	2
1.995262E+00	0.0000E+00	0.0000E+00	2.551000E+01	8.5746E-02	-2.1193E-02	0.0000E+00	0	2
1.584893E+00	0.0000E+00	0.0000E+00	2.802200E+01	8.9448E-02	-2.4808E-02	0.0000E+00	0	2
1.258925E+00	0.0000E+00	0.0000E+00	3.112900E+01	9.3635E-02	-2.8195E-02	0.0000E+00	0	2
1.000000E+00	0.0000E+00	0.0000E+00	3.504200E+01	9.8933E-02	-3.1517E-02	0.0000E+00	0	2
7.943282E-01	0.0000E+00	0.0000E+00	3.987600E+01	1.0518E-01	-3.4099E-02	0.0000E+00	0	2
6.309574E-01	0.0000E+00	0.0000E+00	4.587700E+01	1.1265E-01	-3.6182E-02	0.0000E+00	0	2
5.011872E-01	0.0000E+00	0.0000E+00	5.333500E+01	1.2000E-01	-3.5896E-02	0.0000E+00	0	2
3.981072E-01	0.0000E+00	0.0000E+00	6.263600E+01	1.2747E-01	-3.5152E-02	0.0000E+00	0	2
3.162278E-01	0.0000E+00	0.0000E+00	7.427100E+01	1.3423E-01	-3.3200E-02	0.0000E+00	0	2
2.511886E-01	0.0000E+00	0.0000E+00	8.881400E+01	1.4014E-01	-2.9718E-02	0.0000E+00	0	2
1.995262E-01	0.0000E+00	0.0000E+00	1.070400E+02	1.4405E-01	-2.6714E-02	0.0000E+00	0	2
1.584893E-01	0.0000E+00	0.0000E+00	1.298970E+02	1.4800E-01	-2.3629E-02	0.0000E+00	0	2
1.258925E-01	0.0000E+00	0.0000E+00	1.585820E+02	1.5116E-01	-2.0932E-02	0.0000E+00	0	2
1.000000E-01	0.0000E+00	0.0000E+00	1.950010E+02	1.5266E-01	-1.8361E-02	0.0000E+00	0	2
7.943282E-02	0.0000E+00	0.0000E+00	2.406670E+02	1.5407E-01	-1.6704E-02	0.0000E+00	0	2
6.309573E-02	0.0000E+00	0.0000E+00	2.979550E+02	1.5554E-01	-1.5154E-02	0.0000E+00	0	2
5.011872E-02	0.0000E+00	0.0000E+00	3.698850E+02	1.5675E-01	-1.4137E-02	0.0000E+00	0	2
3.981072E-02	0.0000E+00	0.0000E+00	4.602450E+02	1.5810E-01	-1.3923E-02	0.0000E+00	0	2
3.162277E-02	0.0000E+00	0.0000E+00	5.738020E+02	1.5868E-01	-1.4045E-02	0.0000E+00	0	2
2.511887E-02	0.0000E+00	0.0000E+00	7.165720E+02	1.5973E-01	-1.4888E-02	0.0000E+00	0	2
1.995262E-02	0.0000E+00	0.0000E+00	8.961210E+02	1.6151E-01	-1.6301E-02	0.0000E+00	0	2
1.584893E-02	0.0000E+00	0.0000E+00	1.121970E+03	1.6275E-01	-1.7742E-02	0.0000E+00	0	2
1.258925E-02	0.0000E+00	0.0000E+00	1.406099E+03	1.6474E-01	-1.9451E-02	0.0000E+00	0	2
1.000000E-02	0.0000E+00	0.0000E+00	1.764102E+03	1.6717E-01	-2.2087E-02	0.0000E+00	0	2
