ZPLOT2 ASCII
  Measured Data, VersaStudio:   2.60.6.0
  Experiment Type:            Sweep Frequency, Control Voltage
  Date:                       8-21-2020
  Time:                       11:2:0
  Open Circuit Potential (V): 0
  Begin User Comments:        0
  End User Comments:          0
  Begin Experiment:           0
  End Experiment:             0
  Begin Pstat/Gstat:          VersaSTAT3
  End Pstat/Gstat:            VersaSTAT3
  Begin Analyzer:             0
  End Analyzer:               0
  Begin Information:          Cell Information
    Surface Area:             1
    Density:                  0
    Weight:                   0
    Polarity:                 0
    PolarityI:                0
    Corrosion Unit Type:      0
    Reference Type:           0
    Reference Potential:      0
    User-Defined Potential:   0
    Stern-Geary:              26
  End Information:            Cell Information
  Null Configuration:         0,3,0,1,100000,0.1
  Data Points:                60
  Freq(Hz)	Ampl	Bias	Time(Sec)	Z'(a)	Z''(b)	GD	Err	Range
End Comments
1.000000E+04	0.0000E+00	0.0000E+00	5.520000E+00	6.6077E-02	2.4916E-02	0.0000E+00	0	2
7.943282E+03	0.0000E+00	0.0000E+00	7.106000E+00	6.5406E-02	2.0343E-02	0.0000E+00	0	2
6.309573E+03	0.0000E+00	0.0000E+00	7.394000E+00	6.4913E-02	1.6325E-02	0.0000E+00	0	2
5.011873E+03	0.0000E+00	0.0000E+00	7.666000E+00	6.4749E-02	1.2607E-02	0.0000E+00	0	2
3.981072E+03	0.0000E+00	0.0000E+00	7.939000E+00	6.5217E-02	9.7476E-03	0.0000E+00	0	2
3.162278E+03	0.0000E+00	0.0000E+00	8.225000E+00	6.4439E-02	7.1755E-03	0.0000E+00	0	2
2.511886E+03	0.0000E+00	0.0000E+00	8.742000E+00	6.4563E-02	5.0827E-03	0.0000E+00	0	2
1.995262E+03	0.0000E+00	0.0000E+00	9.126000E+00	6.4822E-02	3.5086E-03	0.0000E+00	0	2
1.584893E+03	0.0000E+00	0.0000E+00	9.527000E+00	6.5133E-02	2.0852E-03	0.0000E+00	0	2
1.258925E+03	0.0000E+00	0.0000E+00	9.942000E+00	6.5462E-02	8.4384E-04	0.0000E+00	0	2
1.000000E+03	0.0000E+00	0.0000E+00	1.023400E+01	6.6148E-02	-2.4965E-05	0.0000E+00	0	2
7.943282E+02	0.0000E+00	0.0000E+00	1.054500E+01	6.6253E-02	-8.5890E-04	0.0000E+00	0	2
6.309573E+02	0.0000E+00	0.0000E+00	1.082900E+01	6.6931E-02	-1.7173E-03	0.0000E+00	0	2
5.011872E+02	0.0000E+00	0.0000E+00	1.116300E+01	6.7474E-02	-2.0824E-03	0.0000E+00	0	2
3.981072E+02	0.0000E+00	0.0000E+00	1.146400E+01	6.7796E-02	-2.4098E-03	0.0000E+00	0	2
2.511886E+02	0.0000E+00	0.0000E+00	1.213000E+01	6.8911E-02	-3.2267E-03	0.0000E+00	0	2
1.995262E+02	0.0000E+00	0.0000E+00	1.243200E+01	6.9540E-02	-3.5003E-03	0.0000E+00	0	2
1.584893E+02	0.0000E+00	0.0000E+00	1.274300E+01	7.0011E-02	-3.7666E-03	0.0000E+00	0	2
1.258925E+02	0.0000E+00	0.0000E+00	1.313300E+01	7.0603E-02	-4.0878E-03	0.0000E+00	0	2
1.000000E+02	0.0000E+00	0.0000E+00	1.349000E+01	7.1343E-02	-4.3362E-03	0.0000E+00	0	2
7.943282E+01	0.0000E+00	0.0000E+00	1.392000E+01	7.2133E-02	-4.5314E-03	0.0000E+00	0	2
6.309573E+01	0.0000E+00	0.0000E+00	1.427700E+01	7.2549E-02	-4.6888E-03	0.0000E+00	0	2
5.011872E+01	0.0000E+00	0.0000E+00	1.466100E+01	7.3496E-02	-4.8232E-03	0.0000E+00	0	2
3.981072E+01	0.0000E+00	0.0000E+00	1.508600E+01	7.4319E-02	-4.9162E-03	0.0000E+00	0	2
3.162278E+01	0.0000E+00	0.0000E+00	1.544000E+01	7.4858E-02	-5.0971E-03	0.0000E+00	0	2
2.511886E+01	0.0000E+00	0.0000E+00	1.582800E+01	7.5652E-02	-5.3117E-03	0.0000E+00	0	2
1.995262E+01	0.0000E+00	0.0000E+00	1.625400E+01	7.5954E-02	-5.7748E-03	0.0000E+00	0	2
1.584893E+01	0.0000E+00	0.0000E+00	1.672100E+01	7.6449E-02	-6.2366E-03	0.0000E+00	0	2
1.258925E+01	0.0000E+00	0.0000E+00	1.724700E+01	7.7007E-02	-6.5652E-03	0.0000E+00	0	2
1.000000E+01	0.0000E+00	0.0000E+00	1.785100E+01	7.7691E-02	-7.2400E-03	0.0000E+00	0	2
7.943282E+00	0.0000E+00	0.0000E+00	1.854200E+01	7.7890E-02	-8.2831E-03	0.0000E+00	0	2
6.309574E+00	0.0000E+00	0.0000E+00	1.935900E+01	7.8936E-02	-9.4646E-03	0.0000E+00	0	2
5.011872E+00	0.0000E+00	0.0000E+00	2.032500E+01	7.9716E-02	-1.1166E-02	0.0000E+00	0	2
3.981072E+00	0.0000E+00	0.0000E+00	2.146800E+01	8.0897E-02	-1.2959E-02	0.0000E+00	0	2
3.162278E+00	0.0000E+00	0.0000E+00	2.285400E+01	8.2021E-02	-1.5339E-02	0.0000E+00	0	2
2.511886E+00	0.0000E+00	0.0000E+00	2.452800E+01	8.3863E-02	-1.8113E-02	0.0000E+00	0	2
1.995262E+00	0.0000E+00	0.0000E+00	2.658100E+01	8.6505E-02	-2.1402E-02	0.0000E+00	0	2
1.584893E+00	0.0000E+00	0.0000E+00	2.910300E+01	8.9647E-02	-2.4691E-02	0.0000E+00	0	2
1.258925E+00	0.0000E+00	0.0000E+00	3.220700E+01	9.3815E-02	-2.8572E-02	0.0000E+00	0	2
1.000000E+00	0.0000E+00	0.0000E+00	3.612200E+01	9.9001E-02	-3.1745E-02	0.0000E+00	0	2
7.943282E-01	0.0000E+00	0.0000E+00	4.095900E+01	1.0529E-01	-3.4404E-02	0.0000E+00	0	2
6.309574E-01	0.0000E+00	0.0000E+00	4.696200E+01	1.1242E-01	-3.6029E-02	0.0000E+00	0	2
5.011872E-01	0.0000E+00	0.0000E+00	5.442600E+01	1.2019E-01	-3.6308E-02	0.0000E+00	0	2
3.981072E-01	0.0000E+00	0.0000E+00	6.373000E+01	1.2756E-01	-3.5367E-02	0.0000E+00	0	2
3.162278E-01	0.0000E+00	0.0000E+00	7.535900E+01	1.3440E-01	-3.3295E-02	0.0000E+00	0	2
2.511886E-01	0.0000E+00	0.0000E+00	8.990700E+01	1.4050E-01	-3.0201E-02	0.0000E+00	0	2
1.995262E-01	0.0000E+00	0.0000E+00	1.081320E+02	1.4490E-01	-2.7059E-02	0.0000E+00	0	2
1.584893E-01	0.0000E+00	0.0000E+00	1.309930E+02	1.4843E-01	-2.3878E-02	0.0000E+00	0	2
1.258925E-01	0.0000E+00	0.0000E+00	1.596830E+02	1.5108E-01	-2.0912E-02	0.0000E+00	0	2
1.000000E-01	0.0000E+00	0.0000E+00	1.961070E+02	1.5326E-01	-1.8529E-02	0.0000E+00	0	2
7.943282E-02	0.0000E+00	0.0000E+00	2.417680E+02	1.5498E-01	-1.6723E-02	0.0000E+00	0	2
6.309573E-02	0.0000E+00	0.0000E+00	2.990550E+02	1.5624E-01	-1.5098E-02	0.0000E+00	0	2
5.011872E-02	0.0000E+00	0.0000E+00	3.709810E+02	1.5729E-01	-1.4269E-02	0.0000E+00	0	2
3.981072E-02	0.0000E+00	0.0000E+00	4.613390E+02	1.5813E-01	-1.4045E-02	0.0000E+00	0	2
3.162277E-02	0.0000E+00	0.0000E+00	5.749010E+02	1.5911E-01	-1.4375E-02	0.0000E+00	0	2
2.511887E-02	0.0000E+00	0.0000E+00	7.176720E+02	1.6030E-01	-1.4991E-02	0.0000E+00	0	2
1.995262E-02	0.0000E+00	0.0000E+00	8.972200E+02	1.6124E-01	-1.6169E-02	0.0000E+00	0	2
1.584893E-02	0.0000E+00	0.0000E+00	1.123070E+03	1.6268E-01	-1.7659E-02	0.0000E+00	0	2
1.258925E-02	0.0000E+00	0.0000E+00	1.407200E+03	1.6464E-01	-1.9485E-02	0.0000E+00	0	2
1.000000E-02	0.0000E+00	0.0000E+00	1.765206E+03	1.6643E-01	-2.2274E-02	0.0000E+00	0	2
