ZPLOT2 ASCII
  Measured Data, VersaStudio:   2.60.6.0
  Experiment Type:            Sweep Frequency, Control Voltage
  Date:                       8-21-2020
  Time:                       11:26:54
  Open Circuit Potential (V): 0
  Begin User Comments:        0
  End User Comments:          0
  Begin Experiment:           0
  End Experiment:             0
  Begin Pstat/Gstat:          VersaSTAT3
  End Pstat/Gstat:            VersaSTAT3
  Begin Analyzer:             0
  End Analyzer:               0
  Begin Information:          Cell Information
    Surface Area:             1
    Density:                  0
    Weight:                   0
    Polarity:                 0
    PolarityI:                0
    Corrosion Unit Type:      0
    Reference Type:           0
    Reference Potential:      0
    User-Defined Potential:   0
    Stern-Geary:              26
  End Information:            Cell Information
  Null Configuration:         0,3,0,1,100000,0.1
  Data Points:                60
  Freq(Hz)	Ampl	Bias	Time(Sec)	Z'(a)	Z''(b)	GD	Err	Range
End Comments
1.000000E+04	0.0000E+00	0.0000E+00	5.528000E+00	6.6195E-02	2.5052E-02	0.0000E+00	0	2
7.943282E+03	0.0000E+00	0.0000E+00	7.113000E+00	6.5418E-02	2.0295E-02	0.0000E+00	0	2
6.309573E+03	0.0000E+00	0.0000E+00	7.403000E+00	6.4921E-02	1.6278E-02	0.0000E+00	0	2
5.011873E+03	0.0000E+00	0.0000E+00	7.678000E+00	6.4710E-02	1.2624E-02	0.0000E+00	0	2
3.981072E+03	0.0000E+00	0.0000E+00	7.947000E+00	6.5237E-02	9.7747E-03	0.0000E+00	0	2
3.162278E+03	0.0000E+00	0.0000E+00	8.238000E+00	6.4451E-02	7.2397E-03	0.0000E+00	0	2
2.511886E+03	0.0000E+00	0.0000E+00	8.754000E+00	6.4549E-02	5.1255E-03	0.0000E+00	0	2
1.995262E+03	0.0000E+00	0.0000E+00	9.137000E+00	6.4733E-02	3.5249E-03	0.0000E+00	0	2
1.584893E+03	0.0000E+00	0.0000E+00	9.538000E+00	6.5091E-02	2.0315E-03	0.0000E+00	0	2
1.258925E+03	0.0000E+00	0.0000E+00	9.946000E+00	6.5387E-02	9.2220E-04	0.0000E+00	0	2
1.000000E+03	0.0000E+00	0.0000E+00	1.023500E+01	6.5998E-02	-1.0514E-04	0.0000E+00	0	2
7.943282E+02	0.0000E+00	0.0000E+00	1.054300E+01	6.6136E-02	-9.4988E-04	0.0000E+00	0	2
6.309573E+02	0.0000E+00	0.0000E+00	1.082600E+01	6.6714E-02	-1.6312E-03	0.0000E+00	0	2
5.011872E+02	0.0000E+00	0.0000E+00	1.115800E+01	6.6823E-02	-2.0066E-03	0.0000E+00	0	2
3.981072E+02	0.0000E+00	0.0000E+00	1.145900E+01	6.7784E-02	-2.5854E-03	0.0000E+00	0	2
3.162278E+02	0.0000E+00	0.0000E+00	1.174200E+01	6.8295E-02	-2.8128E-03	0.0000E+00	0	2
2.511886E+02	0.0000E+00	0.0000E+00	1.212100E+01	6.8689E-02	-3.1443E-03	0.0000E+00	0	2
1.584893E+02	0.0000E+00	0.0000E+00	1.272900E+01	7.0287E-02	-3.7991E-03	0.0000E+00	0	2
1.258925E+02	0.0000E+00	0.0000E+00	1.312100E+01	7.0788E-02	-3.9738E-03	0.0000E+00	0	2
1.000000E+02	0.0000E+00	0.0000E+00	1.347500E+01	7.1328E-02	-4.3005E-03	0.0000E+00	0	2
7.943282E+01	0.0000E+00	0.0000E+00	1.390400E+01	7.2010E-02	-4.5145E-03	0.0000E+00	0	2
6.309573E+01	0.0000E+00	0.0000E+00	1.425900E+01	7.2703E-02	-4.5712E-03	0.0000E+00	0	2
5.011872E+01	0.0000E+00	0.0000E+00	1.464600E+01	7.3529E-02	-4.8405E-03	0.0000E+00	0	2
3.981072E+01	0.0000E+00	0.0000E+00	1.507400E+01	7.3892E-02	-5.0740E-03	0.0000E+00	0	2
3.162278E+01	0.0000E+00	0.0000E+00	1.543200E+01	7.4730E-02	-5.3343E-03	0.0000E+00	0	2
2.511886E+01	0.0000E+00	0.0000E+00	1.582100E+01	7.5115E-02	-5.4327E-03	0.0000E+00	0	2
1.995262E+01	0.0000E+00	0.0000E+00	1.624400E+01	7.5902E-02	-5.6987E-03	0.0000E+00	0	2
1.584893E+01	0.0000E+00	0.0000E+00	1.671400E+01	7.6551E-02	-6.0985E-03	0.0000E+00	0	2
1.258925E+01	0.0000E+00	0.0000E+00	1.724300E+01	7.7094E-02	-6.5258E-03	0.0000E+00	0	2
1.000000E+01	0.0000E+00	0.0000E+00	1.784100E+01	7.7459E-02	-7.4411E-03	0.0000E+00	0	2
7.943282E+00	0.0000E+00	0.0000E+00	1.853500E+01	7.8200E-02	-8.1018E-03	0.0000E+00	0	2
6.309574E+00	0.0000E+00	0.0000E+00	1.934700E+01	7.8917E-02	-9.4347E-03	0.0000E+00	0	2
5.011872E+00	0.0000E+00	0.0000E+00	2.030900E+01	7.9603E-02	-1.1108E-02	0.0000E+00	0	2
3.981072E+00	0.0000E+00	0.0000E+00	2.145400E+01	8.0768E-02	-1.3209E-02	0.0000E+00	0	2
3.162278E+00	0.0000E+00	0.0000E+00	2.283800E+01	8.1965E-02	-1.5364E-02	0.0000E+00	0	2
2.511886E+00	0.0000E+00	0.0000E+00	2.451900E+01	8.3742E-02	-1.8142E-02	0.0000E+00	0	2
1.995262E+00	0.0000E+00	0.0000E+00	2.656600E+01	8.6320E-02	-2.1463E-02	0.0000E+00	0	2
1.584893E+00	0.0000E+00	0.0000E+00	2.908200E+01	8.9510E-02	-2.4745E-02	0.0000E+00	0	2
1.258925E+00	0.0000E+00	0.0000E+00	3.218900E+01	9.3768E-02	-2.8420E-02	0.0000E+00	0	2
1.000000E+00	0.0000E+00	0.0000E+00	3.610800E+01	9.8591E-02	-3.1737E-02	0.0000E+00	0	2
7.943282E-01	0.0000E+00	0.0000E+00	4.094200E+01	1.0509E-01	-3.4229E-02	0.0000E+00	0	2
6.309574E-01	0.0000E+00	0.0000E+00	4.694000E+01	1.1257E-01	-3.5995E-02	0.0000E+00	0	2
5.011872E-01	0.0000E+00	0.0000E+00	5.440000E+01	1.2008E-01	-3.6407E-02	0.0000E+00	0	2
3.981072E-01	0.0000E+00	0.0000E+00	6.370800E+01	1.2748E-01	-3.5441E-02	0.0000E+00	0	2
3.162278E-01	0.0000E+00	0.0000E+00	7.533900E+01	1.3421E-01	-3.3242E-02	0.0000E+00	0	2
2.511886E-01	0.0000E+00	0.0000E+00	8.988900E+01	1.3980E-01	-3.0312E-02	0.0000E+00	0	2
1.995262E-01	0.0000E+00	0.0000E+00	1.081170E+02	1.4425E-01	-2.6953E-02	0.0000E+00	0	2
1.584893E-01	0.0000E+00	0.0000E+00	1.309700E+02	1.4825E-01	-2.3592E-02	0.0000E+00	0	2
1.258925E-01	0.0000E+00	0.0000E+00	1.596580E+02	1.5092E-01	-2.1085E-02	0.0000E+00	0	2
1.000000E-01	0.0000E+00	0.0000E+00	1.960800E+02	1.5284E-01	-1.8190E-02	0.0000E+00	0	2
7.943282E-02	0.0000E+00	0.0000E+00	2.417420E+02	1.5434E-01	-1.6286E-02	0.0000E+00	0	2
6.309573E-02	0.0000E+00	0.0000E+00	2.990300E+02	1.5597E-01	-1.5055E-02	0.0000E+00	0	2
5.011872E-02	0.0000E+00	0.0000E+00	3.709620E+02	1.5708E-01	-1.4055E-02	0.0000E+00	0	2
3.981072E-02	0.0000E+00	0.0000E+00	4.613190E+02	1.5774E-01	-1.4182E-02	0.0000E+00	0	2
3.162277E-02	0.0000E+00	0.0000E+00	5.748800E+02	1.5915E-01	-1.3991E-02	0.0000E+00	0	2
2.511887E-02	0.0000E+00	0.0000E+00	7.176550E+02	1.5997E-01	-1.4927E-02	0.0000E+00	0	2
1.995262E-02	0.0000E+00	0.0000E+00	8.972060E+02	1.6145E-01	-1.6251E-02	0.0000E+00	0	2
1.584893E-02	0.0000E+00	0.0000E+00	1.123053E+03	1.6255E-01	-1.7793E-02	0.0000E+00	0	2
1.258925E-02	0.0000E+00	0.0000E+00	1.407178E+03	1.6443E-01	-1.9889E-02	0.0000E+00	0	2
1.000000E-02	0.0000E+00	0.0000E+00	1.765180E+03	1.6680E-01	-2.2693E-02	0.0000E+00	0	2
