ZPLOT2 ASCII
  Measured Data, VersaStudio:   2.60.6.0
  Experiment Type:            Sweep Frequency, Control Voltage
  Date:                       8-21-2020
  Time:                       11:51:53
  Open Circuit Potential (V): 0
  Begin User Comments:        0
  End User Comments:          0
  Begin Experiment:           0
  End Experiment:             0
  Begin Pstat/Gstat:          VersaSTAT3
  End Pstat/Gstat:            VersaSTAT3
  Begin Analyzer:             0
  End Analyzer:               0
  Begin Information:          Cell Information
    Surface Area:             1
    Density:                  0
    Weight:                   0
    Polarity:                 0
    PolarityI:                0
    Corrosion Unit Type:      0
    Reference Type:           0
    Reference Potential:      0
    User-Defined Potential:   0
    Stern-Geary:              26
  End Information:            Cell Information
  Null Configuration:         0,3,0,1,100000,0.1
  Data Points:                59
  Freq(Hz)	Ampl	Bias	Time(Sec)	Z'(a)	Z''(b)	GD	Err	Range
End Comments
1.000000E+04	0.0000E+00	0.0000E+00	5.510000E+00	6.6018E-02	2.4637E-02	0.0000E+00	0	2
7.943282E+03	0.0000E+00	0.0000E+00	6.498000E+00	6.5267E-02	1.9420E-02	0.0000E+00	0	2
6.309573E+03	0.0000E+00	0.0000E+00	6.792000E+00	6.4835E-02	1.5410E-02	0.0000E+00	0	2
5.011873E+03	0.0000E+00	0.0000E+00	7.067000E+00	6.4505E-02	1.2018E-02	0.0000E+00	0	2
3.981072E+03	0.0000E+00	0.0000E+00	7.339000E+00	6.4357E-02	9.0191E-03	0.0000E+00	0	2
3.162278E+03	0.0000E+00	0.0000E+00	7.629000E+00	6.4378E-02	6.9845E-03	0.0000E+00	0	2
2.511886E+03	0.0000E+00	0.0000E+00	7.904000E+00	6.4565E-02	4.8037E-03	0.0000E+00	0	2
1.995262E+03	0.0000E+00	0.0000E+00	8.171000E+00	6.4744E-02	3.3227E-03	0.0000E+00	0	2
1.584893E+03	0.0000E+00	0.0000E+00	8.451000E+00	6.4964E-02	1.9987E-03	0.0000E+00	0	2
1.258925E+03	0.0000E+00	0.0000E+00	8.737000E+00	6.5337E-02	8.3663E-04	0.0000E+00	0	2
1.000000E+03	0.0000E+00	0.0000E+00	9.031000E+00	6.6268E-02	-1.7511E-04	0.0000E+00	0	2
5.011872E+02	0.0000E+00	0.0000E+00	9.954000E+00	6.7082E-02	-1.8572E-03	0.0000E+00	0	2
3.981072E+02	0.0000E+00	0.0000E+00	1.025700E+01	6.7957E-02	-2.5726E-03	0.0000E+00	0	2
3.162278E+02	0.0000E+00	0.0000E+00	1.053500E+01	6.8205E-02	-2.9613E-03	0.0000E+00	0	2
2.511886E+02	0.0000E+00	0.0000E+00	1.091400E+01	6.8924E-02	-3.5059E-03	0.0000E+00	0	2
1.995262E+02	0.0000E+00	0.0000E+00	1.121200E+01	6.9306E-02	-3.6695E-03	0.0000E+00	0	2
1.584893E+02	0.0000E+00	0.0000E+00	1.152400E+01	6.9959E-02	-4.0070E-03	0.0000E+00	0	2
1.258925E+02	0.0000E+00	0.0000E+00	1.191600E+01	7.0427E-02	-3.9772E-03	0.0000E+00	0	2
1.000000E+02	0.0000E+00	0.0000E+00	1.227200E+01	7.0969E-02	-4.3413E-03	0.0000E+00	0	2
7.943282E+01	0.0000E+00	0.0000E+00	1.270200E+01	7.2113E-02	-4.5529E-03	0.0000E+00	0	2
6.309573E+01	0.0000E+00	0.0000E+00	1.305600E+01	7.2526E-02	-4.6601E-03	0.0000E+00	0	2
5.011872E+01	0.0000E+00	0.0000E+00	1.344200E+01	7.3146E-02	-4.7306E-03	0.0000E+00	0	2
3.981072E+01	0.0000E+00	0.0000E+00	1.387000E+01	7.4050E-02	-4.8608E-03	0.0000E+00	0	2
3.162278E+01	0.0000E+00	0.0000E+00	1.422400E+01	7.4583E-02	-5.0767E-03	0.0000E+00	0	2
2.511886E+01	0.0000E+00	0.0000E+00	1.461000E+01	7.5158E-02	-5.3957E-03	0.0000E+00	0	2
1.995262E+01	0.0000E+00	0.0000E+00	1.503300E+01	7.6017E-02	-5.7857E-03	0.0000E+00	0	2
1.584893E+01	0.0000E+00	0.0000E+00	1.550300E+01	7.6535E-02	-5.7447E-03	0.0000E+00	0	2
1.258925E+01	0.0000E+00	0.0000E+00	1.603200E+01	7.7033E-02	-6.5043E-03	0.0000E+00	0	2
1.000000E+01	0.0000E+00	0.0000E+00	1.663200E+01	7.7549E-02	-7.0654E-03	0.0000E+00	0	2
7.943282E+00	0.0000E+00	0.0000E+00	1.732500E+01	7.7942E-02	-8.1863E-03	0.0000E+00	0	2
6.309574E+00	0.0000E+00	0.0000E+00	1.813800E+01	7.8948E-02	-9.3554E-03	0.0000E+00	0	2
5.011872E+00	0.0000E+00	0.0000E+00	1.910300E+01	7.9425E-02	-1.1153E-02	0.0000E+00	0	2
3.981072E+00	0.0000E+00	0.0000E+00	2.024900E+01	8.0473E-02	-1.2718E-02	0.0000E+00	0	2
3.162278E+00	0.0000E+00	0.0000E+00	2.163500E+01	8.1694E-02	-1.5551E-02	0.0000E+00	0	2
2.511886E+00	0.0000E+00	0.0000E+00	2.331300E+01	8.3826E-02	-1.8556E-02	0.0000E+00	0	2
1.995262E+00	0.0000E+00	0.0000E+00	2.535900E+01	8.5990E-02	-2.1182E-02	0.0000E+00	0	2
1.584893E+00	0.0000E+00	0.0000E+00	2.787100E+01	8.8765E-02	-2.4704E-02	0.0000E+00	0	2
1.258925E+00	0.0000E+00	0.0000E+00	3.097600E+01	9.3484E-02	-2.8321E-02	0.0000E+00	0	2
1.000000E+00	0.0000E+00	0.0000E+00	3.489200E+01	9.8852E-02	-3.1667E-02	0.0000E+00	0	2
7.943282E-01	0.0000E+00	0.0000E+00	3.973000E+01	1.0514E-01	-3.4445E-02	0.0000E+00	0	2
6.309574E-01	0.0000E+00	0.0000E+00	4.572500E+01	1.1241E-01	-3.6112E-02	0.0000E+00	0	2
5.011872E-01	0.0000E+00	0.0000E+00	5.318700E+01	1.1999E-01	-3.6504E-02	0.0000E+00	0	2
3.981072E-01	0.0000E+00	0.0000E+00	6.249100E+01	1.2756E-01	-3.5486E-02	0.0000E+00	0	2
3.162278E-01	0.0000E+00	0.0000E+00	7.411900E+01	1.3421E-01	-3.2759E-02	0.0000E+00	0	2
2.511886E-01	0.0000E+00	0.0000E+00	8.866500E+01	1.4019E-01	-3.0310E-02	0.0000E+00	0	2
1.995262E-01	0.0000E+00	0.0000E+00	1.068930E+02	1.4445E-01	-2.7059E-02	0.0000E+00	0	2
1.584893E-01	0.0000E+00	0.0000E+00	1.297470E+02	1.4819E-01	-2.3338E-02	0.0000E+00	0	2
1.258925E-01	0.0000E+00	0.0000E+00	1.584360E+02	1.5096E-01	-2.0628E-02	0.0000E+00	0	2
1.000000E-01	0.0000E+00	0.0000E+00	1.948560E+02	1.5291E-01	-1.8457E-02	0.0000E+00	0	2
7.943282E-02	0.0000E+00	0.0000E+00	2.405140E+02	1.5435E-01	-1.6814E-02	0.0000E+00	0	2
6.309573E-02	0.0000E+00	0.0000E+00	2.978010E+02	1.5579E-01	-1.5312E-02	0.0000E+00	0	2
5.011872E-02	0.0000E+00	0.0000E+00	3.697320E+02	1.5692E-01	-1.4644E-02	0.0000E+00	0	2
3.981072E-02	0.0000E+00	0.0000E+00	4.600940E+02	1.5823E-01	-1.3995E-02	0.0000E+00	0	2
3.162277E-02	0.0000E+00	0.0000E+00	5.736610E+02	1.5893E-01	-1.4502E-02	0.0000E+00	0	2
2.511887E-02	0.0000E+00	0.0000E+00	7.164340E+02	1.6002E-01	-1.5013E-02	0.0000E+00	0	2
1.995262E-02	0.0000E+00	0.0000E+00	8.959810E+02	1.6092E-01	-1.5808E-02	0.0000E+00	0	2
1.584893E-02	0.0000E+00	0.0000E+00	1.121823E+03	1.6258E-01	-1.7402E-02	0.0000E+00	0	2
1.258925E-02	0.0000E+00	0.0000E+00	1.405947E+03	1.6447E-01	-2.0358E-02	0.0000E+00	0	2
1.000000E-02	0.0000E+00	0.0000E+00	1.763949E+03	1.6690E-01	-2.2593E-02	0.0000E+00	0	2
