ZPLOT2 ASCII
  Measured Data, VersaStudio:   2.60.6.0
  Experiment Type:            Sweep Frequency, Control Voltage
  Date:                       8-21-2020
  Time:                       12:37:52
  Open Circuit Potential (V): 0
  Begin User Comments:        0
  End User Comments:          0
  Begin Experiment:           0
  End Experiment:             0
  Begin Pstat/Gstat:          VersaSTAT3
  End Pstat/Gstat:            VersaSTAT3
  Begin Analyzer:             0
  End Analyzer:               0
  Begin Information:          Cell Information
    Surface Area:             1
    Density:                  0
    Weight:                   0
    Polarity:                 0
    PolarityI:                0
    Corrosion Unit Type:      0
    Reference Type:           0
    Reference Potential:      0
    User-Defined Potential:   0
    Stern-Geary:              26
  End Information:            Cell Information
  Null Configuration:         0,3,0,1,100000,0.1
  Data Points:                57
  Freq(Hz)	Ampl	Bias	Time(Sec)	Z'(a)	Z''(b)	GD	Err	Range
End Comments
1.000000E+04	0.0000E+00	0.0000E+00	5.511000E+00	6.5896E-02	2.4744E-02	0.0000E+00	0	2
7.943282E+03	0.0000E+00	0.0000E+00	6.502000E+00	6.5205E-02	1.9418E-02	0.0000E+00	0	2
6.309573E+03	0.0000E+00	0.0000E+00	6.791000E+00	6.4669E-02	1.5401E-02	0.0000E+00	0	2
5.011873E+03	0.0000E+00	0.0000E+00	7.069000E+00	6.4389E-02	1.2029E-02	0.0000E+00	0	2
3.981072E+03	0.0000E+00	0.0000E+00	7.340000E+00	6.4354E-02	9.0808E-03	0.0000E+00	0	2
3.162278E+03	0.0000E+00	0.0000E+00	7.625000E+00	6.4285E-02	6.8379E-03	0.0000E+00	0	2
2.511886E+03	0.0000E+00	0.0000E+00	7.902000E+00	6.4457E-02	4.8283E-03	0.0000E+00	0	2
1.995262E+03	0.0000E+00	0.0000E+00	8.168000E+00	6.4716E-02	3.2738E-03	0.0000E+00	0	2
1.584893E+03	0.0000E+00	0.0000E+00	8.447000E+00	6.4949E-02	1.8660E-03	0.0000E+00	0	2
1.258925E+03	0.0000E+00	0.0000E+00	8.796000E+00	6.5368E-02	7.5966E-04	0.0000E+00	0	2
1.000000E+03	0.0000E+00	0.0000E+00	9.091000E+00	6.5866E-02	1.1383E-04	0.0000E+00	0	2
6.309573E+02	0.0000E+00	0.0000E+00	9.684000E+00	6.7223E-02	-1.8288E-03	0.0000E+00	0	2
5.011872E+02	0.0000E+00	0.0000E+00	1.001700E+01	6.7529E-02	-2.0383E-03	0.0000E+00	0	2
3.981072E+02	0.0000E+00	0.0000E+00	1.032100E+01	6.7917E-02	-2.5635E-03	0.0000E+00	0	2
3.162278E+02	0.0000E+00	0.0000E+00	1.060100E+01	6.8401E-02	-2.8608E-03	0.0000E+00	0	2
2.511886E+02	0.0000E+00	0.0000E+00	1.098000E+01	6.8930E-02	-2.8995E-03	0.0000E+00	0	2
1.995262E+02	0.0000E+00	0.0000E+00	1.127800E+01	6.9378E-02	-3.4408E-03	0.0000E+00	0	2
1.584893E+02	0.0000E+00	0.0000E+00	1.159100E+01	7.0269E-02	-3.9153E-03	0.0000E+00	0	2
1.258925E+02	0.0000E+00	0.0000E+00	1.198000E+01	7.0816E-02	-4.4748E-03	0.0000E+00	0	2
1.000000E+02	0.0000E+00	0.0000E+00	1.233500E+01	7.1335E-02	-4.2849E-03	0.0000E+00	0	2
7.943282E+01	0.0000E+00	0.0000E+00	1.276000E+01	7.1890E-02	-4.4982E-03	0.0000E+00	0	2
6.309573E+01	0.0000E+00	0.0000E+00	1.311900E+01	7.2838E-02	-4.5283E-03	0.0000E+00	0	2
3.981072E+01	0.0000E+00	0.0000E+00	1.392900E+01	7.4057E-02	-4.7919E-03	0.0000E+00	0	2
3.162278E+01	0.0000E+00	0.0000E+00	1.428700E+01	7.4643E-02	-5.1599E-03	0.0000E+00	0	2
2.511886E+01	0.0000E+00	0.0000E+00	1.467400E+01	7.4981E-02	-5.5105E-03	0.0000E+00	0	2
1.258925E+01	0.0000E+00	0.0000E+00	1.609500E+01	7.6688E-02	-6.8042E-03	0.0000E+00	0	2
1.000000E+01	0.0000E+00	0.0000E+00	1.669200E+01	7.7791E-02	-7.5211E-03	0.0000E+00	0	2
7.943282E+00	0.0000E+00	0.0000E+00	1.738600E+01	7.8216E-02	-8.2831E-03	0.0000E+00	0	2
6.309574E+00	0.0000E+00	0.0000E+00	1.820000E+01	7.8668E-02	-9.4528E-03	0.0000E+00	0	2
5.011872E+00	0.0000E+00	0.0000E+00	1.916000E+01	7.9657E-02	-1.1004E-02	0.0000E+00	0	2
3.981072E+00	0.0000E+00	0.0000E+00	2.030600E+01	8.0591E-02	-1.3160E-02	0.0000E+00	0	2
3.162278E+00	0.0000E+00	0.0000E+00	2.168700E+01	8.1995E-02	-1.5454E-02	0.0000E+00	0	2
2.511886E+00	0.0000E+00	0.0000E+00	2.336600E+01	8.3479E-02	-1.7716E-02	0.0000E+00	0	2
1.995262E+00	0.0000E+00	0.0000E+00	2.541100E+01	8.6329E-02	-2.1531E-02	0.0000E+00	0	2
1.584893E+00	0.0000E+00	0.0000E+00	2.792500E+01	8.9357E-02	-2.4770E-02	0.0000E+00	0	2
1.258925E+00	0.0000E+00	0.0000E+00	3.103200E+01	9.3801E-02	-2.8392E-02	0.0000E+00	0	2
1.000000E+00	0.0000E+00	0.0000E+00	3.494600E+01	9.9829E-02	-3.1813E-02	0.0000E+00	0	2
7.943282E-01	0.0000E+00	0.0000E+00	3.977900E+01	1.0611E-01	-3.4371E-02	0.0000E+00	0	2
6.309574E-01	0.0000E+00	0.0000E+00	4.578000E+01	1.1399E-01	-3.6152E-02	0.0000E+00	0	2
5.011872E-01	0.0000E+00	0.0000E+00	5.324700E+01	1.2133E-01	-3.6246E-02	0.0000E+00	0	2
3.981072E-01	0.0000E+00	0.0000E+00	6.255500E+01	1.2888E-01	-3.5599E-02	0.0000E+00	0	2
3.162278E-01	0.0000E+00	0.0000E+00	7.417900E+01	1.3564E-01	-3.3594E-02	0.0000E+00	0	2
2.511886E-01	0.0000E+00	0.0000E+00	8.872600E+01	1.4141E-01	-3.0184E-02	0.0000E+00	0	2
1.995262E-01	0.0000E+00	0.0000E+00	1.069500E+02	1.4591E-01	-2.7005E-02	0.0000E+00	0	2
1.584893E-01	0.0000E+00	0.0000E+00	1.298060E+02	1.4933E-01	-2.4120E-02	0.0000E+00	0	2
1.258925E-01	0.0000E+00	0.0000E+00	1.585000E+02	1.5161E-01	-2.1086E-02	0.0000E+00	0	2
1.000000E-01	0.0000E+00	0.0000E+00	1.949200E+02	1.5414E-01	-1.8735E-02	0.0000E+00	0	2
7.943282E-02	0.0000E+00	0.0000E+00	2.405820E+02	1.5558E-01	-1.6576E-02	0.0000E+00	0	2
6.309573E-02	0.0000E+00	0.0000E+00	2.978700E+02	1.5671E-01	-1.5032E-02	0.0000E+00	0	2
5.011872E-02	0.0000E+00	0.0000E+00	3.697990E+02	1.5796E-01	-1.4262E-02	0.0000E+00	0	2
3.981072E-02	0.0000E+00	0.0000E+00	4.601580E+02	1.5858E-01	-1.4112E-02	0.0000E+00	0	2
3.162277E-02	0.0000E+00	0.0000E+00	5.737200E+02	1.5979E-01	-1.4300E-02	0.0000E+00	0	2
2.511887E-02	0.0000E+00	0.0000E+00	7.164930E+02	1.6085E-01	-1.5187E-02	0.0000E+00	0	2
1.995262E-02	0.0000E+00	0.0000E+00	8.960400E+02	1.6198E-01	-1.6064E-02	0.0000E+00	0	2
1.584893E-02	0.0000E+00	0.0000E+00	1.121885E+03	1.6356E-01	-1.7856E-02	0.0000E+00	0	2
1.258925E-02	0.0000E+00	0.0000E+00	1.406013E+03	1.6465E-01	-1.9573E-02	0.0000E+00	0	2
1.000000E-02	0.0000E+00	0.0000E+00	1.764018E+03	1.6645E-01	-2.2222E-02	0.0000E+00	0	2
