ZPLOT2 ASCII
  Measured Data, VersaStudio:   2.60.6.0
  Experiment Type:            Sweep Frequency, Control Voltage
  Date:                       8-24-2020
  Time:                       9:34:48
  Open Circuit Potential (V): 0
  Begin User Comments:        0
  End User Comments:          0
  Begin Experiment:           0
  End Experiment:             0
  Begin Pstat/Gstat:          VersaSTAT3
  End Pstat/Gstat:            VersaSTAT3
  Begin Analyzer:             0
  End Analyzer:               0
  Begin Information:          Cell Information
    Surface Area:             1
    Density:                  0
    Weight:                   0
    Polarity:                 0
    PolarityI:                0
    Corrosion Unit Type:      0
    Reference Type:           0
    Reference Potential:      0
    User-Defined Potential:   0
    Stern-Geary:              26
  End Information:            Cell Information
  Null Configuration:         0,3,0,1,100000,0.1
  Data Points:                57
  Freq(Hz)	Ampl	Bias	Time(Sec)	Z'(a)	Z''(b)	GD	Err	Range
End Comments
1.000000E+04	0.0000E+00	0.0000E+00	5.562000E+00	8.7047E-02	2.4652E-02	0.0000E+00	0	2
7.943282E+03	0.0000E+00	0.0000E+00	5.829000E+00	8.6136E-02	1.9265E-02	0.0000E+00	0	2
6.309573E+03	0.0000E+00	0.0000E+00	6.118000E+00	8.5804E-02	1.5293E-02	0.0000E+00	0	2
5.011873E+03	0.0000E+00	0.0000E+00	6.392000E+00	8.5613E-02	1.1724E-02	0.0000E+00	0	2
3.981072E+03	0.0000E+00	0.0000E+00	6.660000E+00	8.5500E-02	8.8493E-03	0.0000E+00	0	2
3.162278E+03	0.0000E+00	0.0000E+00	6.948000E+00	8.5494E-02	6.6229E-03	0.0000E+00	0	2
2.511886E+03	0.0000E+00	0.0000E+00	7.285000E+00	8.5701E-02	4.5110E-03	0.0000E+00	0	2
1.995262E+03	0.0000E+00	0.0000E+00	7.672000E+00	8.6055E-02	3.0591E-03	0.0000E+00	0	2
1.584893E+03	0.0000E+00	0.0000E+00	8.018000E+00	8.6431E-02	1.6668E-03	0.0000E+00	0	2
1.258925E+03	0.0000E+00	0.0000E+00	8.368000E+00	8.6693E-02	4.2491E-04	0.0000E+00	0	2
1.000000E+03	0.0000E+00	0.0000E+00	8.660000E+00	8.6929E-02	-5.9983E-04	0.0000E+00	0	2
7.943282E+02	0.0000E+00	0.0000E+00	8.968000E+00	8.7564E-02	-1.2331E-03	0.0000E+00	0	2
6.309573E+02	0.0000E+00	0.0000E+00	9.252000E+00	8.8507E-02	-1.9862E-03	0.0000E+00	0	2
3.981072E+02	0.0000E+00	0.0000E+00	9.889000E+00	8.9300E-02	-2.8307E-03	0.0000E+00	0	2
3.162278E+02	0.0000E+00	0.0000E+00	1.016900E+01	8.9892E-02	-3.3167E-03	0.0000E+00	0	2
1.584893E+02	0.0000E+00	0.0000E+00	1.115600E+01	9.1990E-02	-4.3602E-03	0.0000E+00	0	2
1.258925E+02	0.0000E+00	0.0000E+00	1.154300E+01	9.2770E-02	-4.4550E-03	0.0000E+00	0	2
1.000000E+02	0.0000E+00	0.0000E+00	1.189900E+01	9.3660E-02	-4.7538E-03	0.0000E+00	0	2
7.943282E+01	0.0000E+00	0.0000E+00	1.232600E+01	9.4389E-02	-4.9118E-03	0.0000E+00	0	2
6.309573E+01	0.0000E+00	0.0000E+00	1.268200E+01	9.4880E-02	-5.2064E-03	0.0000E+00	0	2
5.011872E+01	0.0000E+00	0.0000E+00	1.306700E+01	9.5786E-02	-5.5485E-03	0.0000E+00	0	2
3.981072E+01	0.0000E+00	0.0000E+00	1.349100E+01	9.6417E-02	-5.4216E-03	0.0000E+00	0	2
3.162278E+01	0.0000E+00	0.0000E+00	1.384600E+01	9.7357E-02	-5.6616E-03	0.0000E+00	0	2
2.511886E+01	0.0000E+00	0.0000E+00	1.423100E+01	9.8158E-02	-5.7972E-03	0.0000E+00	0	2
1.995262E+01	0.0000E+00	0.0000E+00	1.465600E+01	9.8739E-02	-6.2871E-03	0.0000E+00	0	2
1.584893E+01	0.0000E+00	0.0000E+00	1.512400E+01	9.9508E-02	-6.5340E-03	0.0000E+00	0	2
1.258925E+01	0.0000E+00	0.0000E+00	1.565100E+01	9.9757E-02	-6.9409E-03	0.0000E+00	0	2
1.000000E+01	0.0000E+00	0.0000E+00	1.624900E+01	1.0065E-01	-7.7388E-03	0.0000E+00	0	2
7.943282E+00	0.0000E+00	0.0000E+00	1.694500E+01	1.0113E-01	-8.9723E-03	0.0000E+00	0	2
6.309574E+00	0.0000E+00	0.0000E+00	1.776000E+01	1.0177E-01	-1.0189E-02	0.0000E+00	0	2
5.011872E+00	0.0000E+00	0.0000E+00	1.872200E+01	1.0292E-01	-1.1474E-02	0.0000E+00	0	2
3.981072E+00	0.0000E+00	0.0000E+00	1.986500E+01	1.0375E-01	-1.3713E-02	0.0000E+00	0	2
3.162278E+00	0.0000E+00	0.0000E+00	2.124800E+01	1.0483E-01	-1.5932E-02	0.0000E+00	0	2
2.511886E+00	0.0000E+00	0.0000E+00	2.292400E+01	1.0649E-01	-1.9121E-02	0.0000E+00	0	2
1.995262E+00	0.0000E+00	0.0000E+00	2.497000E+01	1.0858E-01	-2.2664E-02	0.0000E+00	0	2
1.584893E+00	0.0000E+00	0.0000E+00	2.748200E+01	1.1145E-01	-2.6829E-02	0.0000E+00	0	2
1.258925E+00	0.0000E+00	0.0000E+00	3.058600E+01	1.1564E-01	-3.1183E-02	0.0000E+00	0	2
1.000000E+00	0.0000E+00	0.0000E+00	3.450800E+01	1.2049E-01	-3.6154E-02	0.0000E+00	0	2
7.943282E-01	0.0000E+00	0.0000E+00	3.934600E+01	1.2739E-01	-4.0839E-02	0.0000E+00	0	2
6.309574E-01	0.0000E+00	0.0000E+00	4.534600E+01	1.3533E-01	-4.4765E-02	0.0000E+00	0	2
5.011872E-01	0.0000E+00	0.0000E+00	5.280500E+01	1.4494E-01	-4.8220E-02	0.0000E+00	0	2
3.981072E-01	0.0000E+00	0.0000E+00	6.211200E+01	1.5515E-01	-4.8963E-02	0.0000E+00	0	2
3.162278E-01	0.0000E+00	0.0000E+00	7.373800E+01	1.6528E-01	-4.8817E-02	0.0000E+00	0	2
2.511886E-01	0.0000E+00	0.0000E+00	8.828300E+01	1.7531E-01	-4.6078E-02	0.0000E+00	0	2
1.995262E-01	0.0000E+00	0.0000E+00	1.065100E+02	1.8359E-01	-4.2337E-02	0.0000E+00	0	2
1.584893E-01	0.0000E+00	0.0000E+00	1.293630E+02	1.9038E-01	-3.8086E-02	0.0000E+00	0	2
1.258925E-01	0.0000E+00	0.0000E+00	1.580450E+02	1.9674E-01	-3.4085E-02	0.0000E+00	0	2
1.000000E-01	0.0000E+00	0.0000E+00	1.944660E+02	2.0095E-01	-2.9884E-02	0.0000E+00	0	2
7.943282E-02	0.0000E+00	0.0000E+00	2.401230E+02	2.0431E-01	-2.6603E-02	0.0000E+00	0	2
6.309573E-02	0.0000E+00	0.0000E+00	2.974120E+02	2.0704E-01	-2.3396E-02	0.0000E+00	0	2
3.981072E-02	0.0000E+00	0.0000E+00	4.597000E+02	2.1057E-01	-1.9930E-02	0.0000E+00	0	2
3.162277E-02	0.0000E+00	0.0000E+00	5.732570E+02	2.1227E-01	-1.9633E-02	0.0000E+00	0	2
2.511887E-02	0.0000E+00	0.0000E+00	7.160260E+02	2.1405E-01	-1.9665E-02	0.0000E+00	0	2
1.995262E-02	0.0000E+00	0.0000E+00	8.955720E+02	2.1540E-01	-1.9868E-02	0.0000E+00	0	2
1.584893E-02	0.0000E+00	0.0000E+00	1.121413E+03	2.1694E-01	-2.1412E-02	0.0000E+00	0	2
1.258925E-02	0.0000E+00	0.0000E+00	1.405545E+03	2.1856E-01	-2.3196E-02	0.0000E+00	0	2
1.000000E-02	0.0000E+00	0.0000E+00	1.763549E+03	2.2089E-01	-2.5323E-02	0.0000E+00	0	2
