ZPLOT2 ASCII
  Measured Data, VersaStudio:   2.60.6.0
  Experiment Type:            Sweep Frequency, Control Voltage
  Date:                       8-24-2020
  Time:                       15:35:45
  Open Circuit Potential (V): 0
  Begin User Comments:        0
  End User Comments:          0
  Begin Experiment:           0
  End Experiment:             0
  Begin Pstat/Gstat:          VersaSTAT3
  End Pstat/Gstat:            VersaSTAT3
  Begin Analyzer:             0
  End Analyzer:               0
  Begin Information:          Cell Information
    Surface Area:             1
    Density:                  0
    Weight:                   0
    Polarity:                 0
    PolarityI:                0
    Corrosion Unit Type:      0
    Reference Type:           0
    Reference Potential:      0
    User-Defined Potential:   0
    Stern-Geary:              26
  End Information:            Cell Information
  Null Configuration:         0,3,0,1,100000,0.1
  Data Points:                58
  Freq(Hz)	Ampl	Bias	Time(Sec)	Z'(a)	Z''(b)	GD	Err	Range
End Comments
1.000000E+04	0.0000E+00	0.0000E+00	5.559000E+00	8.3886E-02	2.4810E-02	0.0000E+00	0	2
7.943282E+03	0.0000E+00	0.0000E+00	5.828000E+00	8.3084E-02	1.9503E-02	0.0000E+00	0	2
6.309573E+03	0.0000E+00	0.0000E+00	6.114000E+00	8.2489E-02	1.5352E-02	0.0000E+00	0	2
5.011873E+03	0.0000E+00	0.0000E+00	6.389000E+00	8.2245E-02	1.1806E-02	0.0000E+00	0	2
3.981072E+03	0.0000E+00	0.0000E+00	6.658000E+00	8.2123E-02	9.0334E-03	0.0000E+00	0	2
3.162278E+03	0.0000E+00	0.0000E+00	6.945000E+00	8.2190E-02	6.8046E-03	0.0000E+00	0	2
2.511886E+03	0.0000E+00	0.0000E+00	7.224000E+00	8.2310E-02	4.7426E-03	0.0000E+00	0	2
1.995262E+03	0.0000E+00	0.0000E+00	7.489000E+00	8.2603E-02	3.2043E-03	0.0000E+00	0	2
1.584893E+03	0.0000E+00	0.0000E+00	7.830000E+00	8.2886E-02	1.7729E-03	0.0000E+00	0	2
1.258925E+03	0.0000E+00	0.0000E+00	8.183000E+00	8.3272E-02	5.7871E-04	0.0000E+00	0	2
7.943282E+02	0.0000E+00	0.0000E+00	8.775000E+00	8.3926E-02	-1.1534E-03	0.0000E+00	0	2
6.309573E+02	0.0000E+00	0.0000E+00	9.054000E+00	8.4622E-02	-1.8041E-03	0.0000E+00	0	2
5.011872E+02	0.0000E+00	0.0000E+00	9.389000E+00	8.5086E-02	-2.5068E-03	0.0000E+00	0	2
3.981072E+02	0.0000E+00	0.0000E+00	9.689000E+00	8.5700E-02	-2.8248E-03	0.0000E+00	0	2
3.162278E+02	0.0000E+00	0.0000E+00	9.968000E+00	8.6237E-02	-3.3324E-03	0.0000E+00	0	2
1.995262E+02	0.0000E+00	0.0000E+00	1.064600E+01	8.7440E-02	-3.7399E-03	0.0000E+00	0	2
1.584893E+02	0.0000E+00	0.0000E+00	1.095500E+01	8.8062E-02	-4.0755E-03	0.0000E+00	0	2
1.258925E+02	0.0000E+00	0.0000E+00	1.134500E+01	8.8352E-02	-4.1336E-03	0.0000E+00	0	2
1.000000E+02	0.0000E+00	0.0000E+00	1.170000E+01	8.9489E-02	-4.5580E-03	0.0000E+00	0	2
7.943282E+01	0.0000E+00	0.0000E+00	1.212600E+01	9.0248E-02	-4.6982E-03	0.0000E+00	0	2
6.309573E+01	0.0000E+00	0.0000E+00	1.248100E+01	9.1151E-02	-4.8288E-03	0.0000E+00	0	2
5.011872E+01	0.0000E+00	0.0000E+00	1.286700E+01	9.1577E-02	-5.1578E-03	0.0000E+00	0	2
3.162278E+01	0.0000E+00	0.0000E+00	1.365300E+01	9.2649E-02	-5.2633E-03	0.0000E+00	0	2
2.511886E+01	0.0000E+00	0.0000E+00	1.403300E+01	9.3621E-02	-5.4843E-03	0.0000E+00	0	2
1.995262E+01	0.0000E+00	0.0000E+00	1.445500E+01	9.4908E-02	-6.1428E-03	0.0000E+00	0	2
1.584893E+01	0.0000E+00	0.0000E+00	1.492300E+01	9.5076E-02	-6.2280E-03	0.0000E+00	0	2
1.258925E+01	0.0000E+00	0.0000E+00	1.544700E+01	9.5513E-02	-6.7866E-03	0.0000E+00	0	2
1.000000E+01	0.0000E+00	0.0000E+00	1.604800E+01	9.6297E-02	-7.6319E-03	0.0000E+00	0	2
7.943282E+00	0.0000E+00	0.0000E+00	1.674100E+01	9.6978E-02	-8.6911E-03	0.0000E+00	0	2
6.309574E+00	0.0000E+00	0.0000E+00	1.755500E+01	9.7522E-02	-9.5470E-03	0.0000E+00	0	2
5.011872E+00	0.0000E+00	0.0000E+00	1.851500E+01	9.8185E-02	-1.1317E-02	0.0000E+00	0	2
3.981072E+00	0.0000E+00	0.0000E+00	1.966200E+01	9.9138E-02	-1.3553E-02	0.0000E+00	0	2
3.162278E+00	0.0000E+00	0.0000E+00	2.104500E+01	1.0016E-01	-1.5854E-02	0.0000E+00	0	2
2.511886E+00	0.0000E+00	0.0000E+00	2.271800E+01	1.0200E-01	-1.8672E-02	0.0000E+00	0	2
1.995262E+00	0.0000E+00	0.0000E+00	2.476400E+01	1.0418E-01	-2.2373E-02	0.0000E+00	0	2
1.584893E+00	0.0000E+00	0.0000E+00	2.727600E+01	1.0746E-01	-2.6300E-02	0.0000E+00	0	2
1.258925E+00	0.0000E+00	0.0000E+00	3.038200E+01	1.1120E-01	-3.0585E-02	0.0000E+00	0	2
1.000000E+00	0.0000E+00	0.0000E+00	3.429500E+01	1.1628E-01	-3.5289E-02	0.0000E+00	0	2
7.943282E-01	0.0000E+00	0.0000E+00	3.912700E+01	1.2285E-01	-3.9465E-02	0.0000E+00	0	2
6.309574E-01	0.0000E+00	0.0000E+00	4.512400E+01	1.3118E-01	-4.3251E-02	0.0000E+00	0	2
5.011872E-01	0.0000E+00	0.0000E+00	5.258400E+01	1.3984E-01	-4.5106E-02	0.0000E+00	0	2
3.981072E-01	0.0000E+00	0.0000E+00	6.189300E+01	1.4959E-01	-4.5535E-02	0.0000E+00	0	2
3.162278E-01	0.0000E+00	0.0000E+00	7.351800E+01	1.5915E-01	-4.4336E-02	0.0000E+00	0	2
2.511886E-01	0.0000E+00	0.0000E+00	8.806200E+01	1.6750E-01	-4.1461E-02	0.0000E+00	0	2
1.995262E-01	0.0000E+00	0.0000E+00	1.062860E+02	1.7452E-01	-3.7775E-02	0.0000E+00	0	2
1.584893E-01	0.0000E+00	0.0000E+00	1.291410E+02	1.8039E-01	-3.3930E-02	0.0000E+00	0	2
1.258925E-01	0.0000E+00	0.0000E+00	1.578310E+02	1.8480E-01	-2.9978E-02	0.0000E+00	0	2
1.000000E-01	0.0000E+00	0.0000E+00	1.942510E+02	1.8785E-01	-2.6195E-02	0.0000E+00	0	2
7.943282E-02	0.0000E+00	0.0000E+00	2.399050E+02	1.9087E-01	-2.3435E-02	0.0000E+00	0	2
6.309573E-02	0.0000E+00	0.0000E+00	2.971910E+02	1.9258E-01	-2.1343E-02	0.0000E+00	0	2
5.011872E-02	0.0000E+00	0.0000E+00	3.691180E+02	1.9443E-01	-1.8988E-02	0.0000E+00	0	2
3.981072E-02	0.0000E+00	0.0000E+00	4.594760E+02	1.9537E-01	-1.7757E-02	0.0000E+00	0	2
3.162277E-02	0.0000E+00	0.0000E+00	5.730330E+02	1.9682E-01	-1.7629E-02	0.0000E+00	0	2
2.511887E-02	0.0000E+00	0.0000E+00	7.158060E+02	1.9790E-01	-1.7905E-02	0.0000E+00	0	2
1.995262E-02	0.0000E+00	0.0000E+00	8.953500E+02	1.9943E-01	-1.8714E-02	0.0000E+00	0	2
1.584893E-02	0.0000E+00	0.0000E+00	1.121193E+03	2.0080E-01	-1.9914E-02	0.0000E+00	0	2
1.258925E-02	0.0000E+00	0.0000E+00	1.405316E+03	2.0247E-01	-2.1857E-02	0.0000E+00	0	2
1.000000E-02	0.0000E+00	0.0000E+00	1.763320E+03	2.0479E-01	-2.4496E-02	0.0000E+00	0	2
