ZPLOT2 ASCII
  Measured Data, VersaStudio:   2.60.6.0
  Experiment Type:            Sweep Frequency, Control Voltage
  Date:                       8-24-2020
  Time:                       10:29:48
  Open Circuit Potential (V): 0
  Begin User Comments:        0
  End User Comments:          0
  Begin Experiment:           0
  End Experiment:             0
  Begin Pstat/Gstat:          VersaSTAT3
  End Pstat/Gstat:            VersaSTAT3
  Begin Analyzer:             0
  End Analyzer:               0
  Begin Information:          Cell Information
    Surface Area:             1
    Density:                  0
    Weight:                   0
    Polarity:                 0
    PolarityI:                0
    Corrosion Unit Type:      0
    Reference Type:           0
    Reference Potential:      0
    User-Defined Potential:   0
    Stern-Geary:              26
  End Information:            Cell Information
  Null Configuration:         0,3,0,1,100000,0.1
  Data Points:                59
  Freq(Hz)	Ampl	Bias	Time(Sec)	Z'(a)	Z''(b)	GD	Err	Range
End Comments
1.000000E+04	0.0000E+00	0.0000E+00	5.558000E+00	8.6348E-02	2.4675E-02	0.0000E+00	0	2
7.943282E+03	0.0000E+00	0.0000E+00	5.826000E+00	8.5596E-02	1.9163E-02	0.0000E+00	0	2
6.309573E+03	0.0000E+00	0.0000E+00	6.114000E+00	8.5044E-02	1.5181E-02	0.0000E+00	0	2
5.011873E+03	0.0000E+00	0.0000E+00	6.387000E+00	8.4776E-02	1.1686E-02	0.0000E+00	0	2
3.981072E+03	0.0000E+00	0.0000E+00	6.657000E+00	8.4666E-02	8.9482E-03	0.0000E+00	0	2
3.162278E+03	0.0000E+00	0.0000E+00	6.945000E+00	8.4758E-02	6.7078E-03	0.0000E+00	0	2
2.511886E+03	0.0000E+00	0.0000E+00	7.218000E+00	8.4890E-02	4.5407E-03	0.0000E+00	0	2
1.995262E+03	0.0000E+00	0.0000E+00	7.605000E+00	8.5180E-02	3.0009E-03	0.0000E+00	0	2
1.584893E+03	0.0000E+00	0.0000E+00	7.947000E+00	8.5590E-02	1.6326E-03	0.0000E+00	0	2
1.258925E+03	0.0000E+00	0.0000E+00	8.298000E+00	8.6016E-02	4.4420E-04	0.0000E+00	0	2
7.943282E+02	0.0000E+00	0.0000E+00	8.899000E+00	8.6920E-02	-1.3330E-03	0.0000E+00	0	2
6.309573E+02	0.0000E+00	0.0000E+00	9.181000E+00	8.7263E-02	-1.8758E-03	0.0000E+00	0	2
5.011872E+02	0.0000E+00	0.0000E+00	9.513000E+00	8.7878E-02	-2.2660E-03	0.0000E+00	0	2
3.981072E+02	0.0000E+00	0.0000E+00	9.809000E+00	8.8233E-02	-2.9271E-03	0.0000E+00	0	2
3.162278E+02	0.0000E+00	0.0000E+00	1.009000E+01	8.8864E-02	-3.3819E-03	0.0000E+00	0	2
2.511886E+02	0.0000E+00	0.0000E+00	1.047000E+01	8.9527E-02	-3.4156E-03	0.0000E+00	0	2
1.995262E+02	0.0000E+00	0.0000E+00	1.077100E+01	9.0151E-02	-3.6583E-03	0.0000E+00	0	2
1.584893E+02	0.0000E+00	0.0000E+00	1.108100E+01	9.0926E-02	-4.1008E-03	0.0000E+00	0	2
1.258925E+02	0.0000E+00	0.0000E+00	1.146900E+01	9.1630E-02	-4.2542E-03	0.0000E+00	0	2
1.000000E+02	0.0000E+00	0.0000E+00	1.182500E+01	9.2035E-02	-4.4580E-03	0.0000E+00	0	2
7.943282E+01	0.0000E+00	0.0000E+00	1.225200E+01	9.3173E-02	-4.8238E-03	0.0000E+00	0	2
6.309573E+01	0.0000E+00	0.0000E+00	1.260400E+01	9.3856E-02	-4.9256E-03	0.0000E+00	0	2
5.011872E+01	0.0000E+00	0.0000E+00	1.298900E+01	9.4347E-02	-5.3514E-03	0.0000E+00	0	2
3.981072E+01	0.0000E+00	0.0000E+00	1.341600E+01	9.5504E-02	-5.3724E-03	0.0000E+00	0	2
3.162278E+01	0.0000E+00	0.0000E+00	1.377000E+01	9.6204E-02	-5.6636E-03	0.0000E+00	0	2
2.511886E+01	0.0000E+00	0.0000E+00	1.415500E+01	9.6764E-02	-5.8407E-03	0.0000E+00	0	2
1.995262E+01	0.0000E+00	0.0000E+00	1.457500E+01	9.7115E-02	-6.1473E-03	0.0000E+00	0	2
1.584893E+01	0.0000E+00	0.0000E+00	1.503600E+01	9.7972E-02	-6.4631E-03	0.0000E+00	0	2
1.258925E+01	0.0000E+00	0.0000E+00	1.556300E+01	9.8680E-02	-6.8664E-03	0.0000E+00	0	2
1.000000E+01	0.0000E+00	0.0000E+00	1.616400E+01	9.9227E-02	-7.9935E-03	0.0000E+00	0	2
6.309574E+00	0.0000E+00	0.0000E+00	1.766600E+01	1.0013E-01	-9.8682E-03	0.0000E+00	0	2
5.011872E+00	0.0000E+00	0.0000E+00	1.862500E+01	1.0127E-01	-1.1447E-02	0.0000E+00	0	2
3.981072E+00	0.0000E+00	0.0000E+00	1.977100E+01	1.0197E-01	-1.3454E-02	0.0000E+00	0	2
3.162278E+00	0.0000E+00	0.0000E+00	2.115300E+01	1.0344E-01	-1.5739E-02	0.0000E+00	0	2
2.511886E+00	0.0000E+00	0.0000E+00	2.282700E+01	1.0489E-01	-1.8873E-02	0.0000E+00	0	2
1.995262E+00	0.0000E+00	0.0000E+00	2.487300E+01	1.0699E-01	-2.2459E-02	0.0000E+00	0	2
1.584893E+00	0.0000E+00	0.0000E+00	2.738700E+01	1.1033E-01	-2.6579E-02	0.0000E+00	0	2
1.258925E+00	0.0000E+00	0.0000E+00	3.049100E+01	1.1405E-01	-3.1036E-02	0.0000E+00	0	2
1.000000E+00	0.0000E+00	0.0000E+00	3.440800E+01	1.1903E-01	-3.5527E-02	0.0000E+00	0	2
7.943282E-01	0.0000E+00	0.0000E+00	3.924300E+01	1.2570E-01	-4.0202E-02	0.0000E+00	0	2
6.309574E-01	0.0000E+00	0.0000E+00	4.524300E+01	1.3368E-01	-4.3928E-02	0.0000E+00	0	2
5.011872E-01	0.0000E+00	0.0000E+00	5.270200E+01	1.4271E-01	-4.6285E-02	0.0000E+00	0	2
3.981072E-01	0.0000E+00	0.0000E+00	6.201100E+01	1.5253E-01	-4.7467E-02	0.0000E+00	0	2
3.162278E-01	0.0000E+00	0.0000E+00	7.364300E+01	1.6243E-01	-4.6567E-02	0.0000E+00	0	2
2.511886E-01	0.0000E+00	0.0000E+00	8.818800E+01	1.7162E-01	-4.3728E-02	0.0000E+00	0	2
1.995262E-01	0.0000E+00	0.0000E+00	1.064120E+02	1.7930E-01	-3.9978E-02	0.0000E+00	0	2
1.584893E-01	0.0000E+00	0.0000E+00	1.292650E+02	1.8532E-01	-3.5893E-02	0.0000E+00	0	2
1.258925E-01	0.0000E+00	0.0000E+00	1.579480E+02	1.9069E-01	-3.1867E-02	0.0000E+00	0	2
1.000000E-01	0.0000E+00	0.0000E+00	1.943700E+02	1.9402E-01	-2.7822E-02	0.0000E+00	0	2
7.943282E-02	0.0000E+00	0.0000E+00	2.400340E+02	1.9661E-01	-2.4468E-02	0.0000E+00	0	2
6.309573E-02	0.0000E+00	0.0000E+00	2.973180E+02	1.9903E-01	-2.2581E-02	0.0000E+00	0	2
5.011872E-02	0.0000E+00	0.0000E+00	3.692430E+02	2.0091E-01	-2.0035E-02	0.0000E+00	0	2
3.981072E-02	0.0000E+00	0.0000E+00	4.596020E+02	2.0212E-01	-1.9031E-02	0.0000E+00	0	2
3.162277E-02	0.0000E+00	0.0000E+00	5.731610E+02	2.0353E-01	-1.8231E-02	0.0000E+00	0	2
2.511887E-02	0.0000E+00	0.0000E+00	7.159350E+02	2.0496E-01	-1.8872E-02	0.0000E+00	0	2
1.995262E-02	0.0000E+00	0.0000E+00	8.954830E+02	2.0677E-01	-1.9522E-02	0.0000E+00	0	2
1.584893E-02	0.0000E+00	0.0000E+00	1.121328E+03	2.0779E-01	-2.0561E-02	0.0000E+00	0	2
1.258925E-02	0.0000E+00	0.0000E+00	1.405453E+03	2.0976E-01	-2.2746E-02	0.0000E+00	0	2
1.000000E-02	0.0000E+00	0.0000E+00	1.763455E+03	2.1291E-01	-2.5516E-02	0.0000E+00	0	2
