ZPLOT2 ASCII
  Measured Data, VersaStudio:   2.60.6.0
  Experiment Type:            Sweep Frequency, Control Voltage
  Date:                       8-24-2020
  Time:                       10:55:31
  Open Circuit Potential (V): 0
  Begin User Comments:        0
  End User Comments:          0
  Begin Experiment:           0
  End Experiment:             0
  Begin Pstat/Gstat:          VersaSTAT3
  End Pstat/Gstat:            VersaSTAT3
  Begin Analyzer:             0
  End Analyzer:               0
  Begin Information:          Cell Information
    Surface Area:             1
    Density:                  0
    Weight:                   0
    Polarity:                 0
    PolarityI:                0
    Corrosion Unit Type:      0
    Reference Type:           0
    Reference Potential:      0
    User-Defined Potential:   0
    Stern-Geary:              26
  End Information:            Cell Information
  Null Configuration:         0,3,0,1,100000,0.1
  Data Points:                59
  Freq(Hz)	Ampl	Bias	Time(Sec)	Z'(a)	Z''(b)	GD	Err	Range
End Comments
1.000000E+04	0.0000E+00	0.0000E+00	5.564000E+00	8.7509E-02	2.4749E-02	0.0000E+00	0	2
7.943282E+03	0.0000E+00	0.0000E+00	5.832000E+00	8.6640E-02	1.9190E-02	0.0000E+00	0	2
6.309573E+03	0.0000E+00	0.0000E+00	6.118000E+00	8.6265E-02	1.5362E-02	0.0000E+00	0	2
5.011873E+03	0.0000E+00	0.0000E+00	6.392000E+00	8.5987E-02	1.1749E-02	0.0000E+00	0	2
3.981072E+03	0.0000E+00	0.0000E+00	6.659000E+00	8.5882E-02	8.7934E-03	0.0000E+00	0	2
3.162278E+03	0.0000E+00	0.0000E+00	6.951000E+00	8.5918E-02	6.6393E-03	0.0000E+00	0	2
2.511886E+03	0.0000E+00	0.0000E+00	7.287000E+00	8.5995E-02	4.5417E-03	0.0000E+00	0	2
1.995262E+03	0.0000E+00	0.0000E+00	7.613000E+00	8.6367E-02	2.9472E-03	0.0000E+00	0	2
1.584893E+03	0.0000E+00	0.0000E+00	7.953000E+00	8.6650E-02	1.5918E-03	0.0000E+00	0	2
1.000000E+03	0.0000E+00	0.0000E+00	8.594000E+00	8.7076E-02	-3.0560E-04	0.0000E+00	0	2
7.943282E+02	0.0000E+00	0.0000E+00	8.901000E+00	8.7629E-02	-1.1531E-03	0.0000E+00	0	2
6.309573E+02	0.0000E+00	0.0000E+00	9.181000E+00	8.8236E-02	-1.7265E-03	0.0000E+00	0	2
5.011872E+02	0.0000E+00	0.0000E+00	9.513000E+00	8.9114E-02	-2.5737E-03	0.0000E+00	0	2
3.981072E+02	0.0000E+00	0.0000E+00	9.812000E+00	8.9662E-02	-3.0244E-03	0.0000E+00	0	2
3.162278E+02	0.0000E+00	0.0000E+00	1.009300E+01	8.9998E-02	-3.2625E-03	0.0000E+00	0	2
2.511886E+02	0.0000E+00	0.0000E+00	1.046900E+01	9.0503E-02	-3.4497E-03	0.0000E+00	0	2
1.995262E+02	0.0000E+00	0.0000E+00	1.076800E+01	9.1023E-02	-3.8228E-03	0.0000E+00	0	2
1.584893E+02	0.0000E+00	0.0000E+00	1.108100E+01	9.2084E-02	-4.2704E-03	0.0000E+00	0	2
1.258925E+02	0.0000E+00	0.0000E+00	1.146700E+01	9.2621E-02	-4.4030E-03	0.0000E+00	0	2
1.000000E+02	0.0000E+00	0.0000E+00	1.182100E+01	9.3350E-02	-4.6071E-03	0.0000E+00	0	2
7.943282E+01	0.0000E+00	0.0000E+00	1.224900E+01	9.4125E-02	-4.7720E-03	0.0000E+00	0	2
6.309573E+01	0.0000E+00	0.0000E+00	1.260600E+01	9.4618E-02	-5.0839E-03	0.0000E+00	0	2
5.011872E+01	0.0000E+00	0.0000E+00	1.299300E+01	9.5464E-02	-5.4058E-03	0.0000E+00	0	2
3.981072E+01	0.0000E+00	0.0000E+00	1.341800E+01	9.6743E-02	-5.2577E-03	0.0000E+00	0	2
3.162278E+01	0.0000E+00	0.0000E+00	1.377200E+01	9.7484E-02	-5.4807E-03	0.0000E+00	0	2
2.511886E+01	0.0000E+00	0.0000E+00	1.415700E+01	9.7998E-02	-5.9203E-03	0.0000E+00	0	2
1.995262E+01	0.0000E+00	0.0000E+00	1.457900E+01	9.8555E-02	-5.8203E-03	0.0000E+00	0	2
1.258925E+01	0.0000E+00	0.0000E+00	1.557500E+01	9.9356E-02	-6.5892E-03	0.0000E+00	0	2
1.000000E+01	0.0000E+00	0.0000E+00	1.617200E+01	1.0026E-01	-7.6887E-03	0.0000E+00	0	2
7.943282E+00	0.0000E+00	0.0000E+00	1.686200E+01	1.0084E-01	-8.6249E-03	0.0000E+00	0	2
6.309574E+00	0.0000E+00	0.0000E+00	1.767300E+01	1.0151E-01	-9.6352E-03	0.0000E+00	0	2
5.011872E+00	0.0000E+00	0.0000E+00	1.863200E+01	1.0239E-01	-1.1249E-02	0.0000E+00	0	2
3.981072E+00	0.0000E+00	0.0000E+00	1.978000E+01	1.0337E-01	-1.3267E-02	0.0000E+00	0	2
3.162278E+00	0.0000E+00	0.0000E+00	2.116400E+01	1.0424E-01	-1.5778E-02	0.0000E+00	0	2
2.511886E+00	0.0000E+00	0.0000E+00	2.284300E+01	1.0608E-01	-1.9076E-02	0.0000E+00	0	2
1.995262E+00	0.0000E+00	0.0000E+00	2.488800E+01	1.0830E-01	-2.2288E-02	0.0000E+00	0	2
1.584893E+00	0.0000E+00	0.0000E+00	2.740000E+01	1.1114E-01	-2.6612E-02	0.0000E+00	0	2
1.258925E+00	0.0000E+00	0.0000E+00	3.050400E+01	1.1486E-01	-3.0819E-02	0.0000E+00	0	2
1.000000E+00	0.0000E+00	0.0000E+00	3.442000E+01	1.1999E-01	-3.5527E-02	0.0000E+00	0	2
7.943282E-01	0.0000E+00	0.0000E+00	3.925200E+01	1.2669E-01	-3.9762E-02	0.0000E+00	0	2
6.309574E-01	0.0000E+00	0.0000E+00	4.525000E+01	1.3462E-01	-4.3527E-02	0.0000E+00	0	2
5.011872E-01	0.0000E+00	0.0000E+00	5.271100E+01	1.4424E-01	-4.5985E-02	0.0000E+00	0	2
3.981072E-01	0.0000E+00	0.0000E+00	6.201500E+01	1.5384E-01	-4.6677E-02	0.0000E+00	0	2
3.162278E-01	0.0000E+00	0.0000E+00	7.364400E+01	1.6360E-01	-4.5354E-02	0.0000E+00	0	2
2.511886E-01	0.0000E+00	0.0000E+00	8.819300E+01	1.7215E-01	-4.2914E-02	0.0000E+00	0	2
1.995262E-01	0.0000E+00	0.0000E+00	1.064200E+02	1.8006E-01	-3.9180E-02	0.0000E+00	0	2
1.584893E-01	0.0000E+00	0.0000E+00	1.292730E+02	1.8564E-01	-3.5172E-02	0.0000E+00	0	2
1.258925E-01	0.0000E+00	0.0000E+00	1.579580E+02	1.9050E-01	-3.1394E-02	0.0000E+00	0	2
1.000000E-01	0.0000E+00	0.0000E+00	1.943750E+02	1.9406E-01	-2.7383E-02	0.0000E+00	0	2
7.943282E-02	0.0000E+00	0.0000E+00	2.400280E+02	1.9684E-01	-2.4134E-02	0.0000E+00	0	2
6.309573E-02	0.0000E+00	0.0000E+00	2.973170E+02	1.9933E-01	-2.1612E-02	0.0000E+00	0	2
5.011872E-02	0.0000E+00	0.0000E+00	3.692500E+02	2.0090E-01	-1.9927E-02	0.0000E+00	0	2
3.981072E-02	0.0000E+00	0.0000E+00	4.596030E+02	2.0242E-01	-1.8699E-02	0.0000E+00	0	2
3.162277E-02	0.0000E+00	0.0000E+00	5.731580E+02	2.0402E-01	-1.8118E-02	0.0000E+00	0	2
2.511887E-02	0.0000E+00	0.0000E+00	7.159310E+02	2.0577E-01	-1.8549E-02	0.0000E+00	0	2
1.995262E-02	0.0000E+00	0.0000E+00	8.954790E+02	2.0650E-01	-1.9033E-02	0.0000E+00	0	2
1.584893E-02	0.0000E+00	0.0000E+00	1.121322E+03	2.0843E-01	-2.0846E-02	0.0000E+00	0	2
1.258925E-02	0.0000E+00	0.0000E+00	1.405449E+03	2.1066E-01	-2.2873E-02	0.0000E+00	0	2
1.000000E-02	0.0000E+00	0.0000E+00	1.763455E+03	2.1378E-01	-2.4876E-02	0.0000E+00	0	2
