ZPLOT2 ASCII
  Measured Data, VersaStudio:   2.60.6.0
  Experiment Type:            Sweep Frequency, Control Voltage
  Date:                       8-24-2020
  Time:                       11:20:35
  Open Circuit Potential (V): 0
  Begin User Comments:        0
  End User Comments:          0
  Begin Experiment:           0
  End Experiment:             0
  Begin Pstat/Gstat:          VersaSTAT3
  End Pstat/Gstat:            VersaSTAT3
  Begin Analyzer:             0
  End Analyzer:               0
  Begin Information:          Cell Information
    Surface Area:             1
    Density:                  0
    Weight:                   0
    Polarity:                 0
    PolarityI:                0
    Corrosion Unit Type:      0
    Reference Type:           0
    Reference Potential:      0
    User-Defined Potential:   0
    Stern-Geary:              26
  End Information:            Cell Information
  Null Configuration:         0,3,0,1,100000,0.1
  Data Points:                58
  Freq(Hz)	Ampl	Bias	Time(Sec)	Z'(a)	Z''(b)	GD	Err	Range
End Comments
1.000000E+04	0.0000E+00	0.0000E+00	5.553000E+00	8.6073E-02	2.4532E-02	0.0000E+00	0	2
7.943282E+03	0.0000E+00	0.0000E+00	5.821000E+00	8.5385E-02	1.9324E-02	0.0000E+00	0	2
6.309573E+03	0.0000E+00	0.0000E+00	6.111000E+00	8.4933E-02	1.5194E-02	0.0000E+00	0	2
5.011873E+03	0.0000E+00	0.0000E+00	6.386000E+00	8.4685E-02	1.1723E-02	0.0000E+00	0	2
3.981072E+03	0.0000E+00	0.0000E+00	6.653000E+00	8.4523E-02	8.7853E-03	0.0000E+00	0	2
3.162278E+03	0.0000E+00	0.0000E+00	6.944000E+00	8.4573E-02	6.5934E-03	0.0000E+00	0	2
2.511886E+03	0.0000E+00	0.0000E+00	7.281000E+00	8.4748E-02	4.4340E-03	0.0000E+00	0	2
1.995262E+03	0.0000E+00	0.0000E+00	7.606000E+00	8.4858E-02	2.9650E-03	0.0000E+00	0	2
1.584893E+03	0.0000E+00	0.0000E+00	7.946000E+00	8.5198E-02	1.5971E-03	0.0000E+00	0	2
1.258925E+03	0.0000E+00	0.0000E+00	8.299000E+00	8.5745E-02	5.1215E-04	0.0000E+00	0	2
7.943282E+02	0.0000E+00	0.0000E+00	8.897000E+00	8.6726E-02	-1.2226E-03	0.0000E+00	0	2
6.309573E+02	0.0000E+00	0.0000E+00	9.179000E+00	8.6765E-02	-1.6809E-03	0.0000E+00	0	2
3.981072E+02	0.0000E+00	0.0000E+00	9.814000E+00	8.7763E-02	-2.9987E-03	0.0000E+00	0	2
3.162278E+02	0.0000E+00	0.0000E+00	1.009600E+01	8.8670E-02	-3.1935E-03	0.0000E+00	0	2
2.511886E+02	0.0000E+00	0.0000E+00	1.047200E+01	8.9722E-02	-3.7247E-03	0.0000E+00	0	2
1.995262E+02	0.0000E+00	0.0000E+00	1.077200E+01	8.9912E-02	-3.5956E-03	0.0000E+00	0	2
1.584893E+02	0.0000E+00	0.0000E+00	1.108400E+01	9.0416E-02	-4.0530E-03	0.0000E+00	0	2
1.258925E+02	0.0000E+00	0.0000E+00	1.147300E+01	9.1483E-02	-4.2889E-03	0.0000E+00	0	2
1.000000E+02	0.0000E+00	0.0000E+00	1.182500E+01	9.2287E-02	-4.2743E-03	0.0000E+00	0	2
7.943282E+01	0.0000E+00	0.0000E+00	1.225100E+01	9.3212E-02	-4.7001E-03	0.0000E+00	0	2
6.309573E+01	0.0000E+00	0.0000E+00	1.260700E+01	9.3804E-02	-5.0347E-03	0.0000E+00	0	2
5.011872E+01	0.0000E+00	0.0000E+00	1.299300E+01	9.4422E-02	-5.0256E-03	0.0000E+00	0	2
3.162278E+01	0.0000E+00	0.0000E+00	1.377200E+01	9.6119E-02	-5.5697E-03	0.0000E+00	0	2
2.511886E+01	0.0000E+00	0.0000E+00	1.415400E+01	9.6131E-02	-5.7425E-03	0.0000E+00	0	2
1.995262E+01	0.0000E+00	0.0000E+00	1.457500E+01	9.6974E-02	-6.2517E-03	0.0000E+00	0	2
1.584893E+01	0.0000E+00	0.0000E+00	1.504500E+01	9.7790E-02	-6.5813E-03	0.0000E+00	0	2
1.258925E+01	0.0000E+00	0.0000E+00	1.557500E+01	9.7954E-02	-6.8143E-03	0.0000E+00	0	2
1.000000E+01	0.0000E+00	0.0000E+00	1.617600E+01	9.8801E-02	-7.5983E-03	0.0000E+00	0	2
7.943282E+00	0.0000E+00	0.0000E+00	1.686600E+01	9.9578E-02	-8.5519E-03	0.0000E+00	0	2
6.309574E+00	0.0000E+00	0.0000E+00	1.767900E+01	1.0028E-01	-9.7695E-03	0.0000E+00	0	2
5.011872E+00	0.0000E+00	0.0000E+00	1.863600E+01	1.0061E-01	-1.1199E-02	0.0000E+00	0	2
3.981072E+00	0.0000E+00	0.0000E+00	1.978400E+01	1.0174E-01	-1.3635E-02	0.0000E+00	0	2
3.162278E+00	0.0000E+00	0.0000E+00	2.116600E+01	1.0317E-01	-1.5869E-02	0.0000E+00	0	2
2.511886E+00	0.0000E+00	0.0000E+00	2.284400E+01	1.0449E-01	-1.8773E-02	0.0000E+00	0	2
1.995262E+00	0.0000E+00	0.0000E+00	2.489700E+01	1.0692E-01	-2.2295E-02	0.0000E+00	0	2
1.584893E+00	0.0000E+00	0.0000E+00	2.740900E+01	1.1018E-01	-2.6490E-02	0.0000E+00	0	2
1.258925E+00	0.0000E+00	0.0000E+00	3.051700E+01	1.1383E-01	-3.0745E-02	0.0000E+00	0	2
1.000000E+00	0.0000E+00	0.0000E+00	3.443200E+01	1.1866E-01	-3.5152E-02	0.0000E+00	0	2
7.943282E-01	0.0000E+00	0.0000E+00	3.926700E+01	1.2521E-01	-3.9566E-02	0.0000E+00	0	2
6.309574E-01	0.0000E+00	0.0000E+00	4.526400E+01	1.3322E-01	-4.2906E-02	0.0000E+00	0	2
5.011872E-01	0.0000E+00	0.0000E+00	5.272500E+01	1.4210E-01	-4.5496E-02	0.0000E+00	0	2
3.981072E-01	0.0000E+00	0.0000E+00	6.203000E+01	1.5238E-01	-4.6200E-02	0.0000E+00	0	2
3.162278E-01	0.0000E+00	0.0000E+00	7.365500E+01	1.6164E-01	-4.5416E-02	0.0000E+00	0	2
2.511886E-01	0.0000E+00	0.0000E+00	8.820200E+01	1.7023E-01	-4.2947E-02	0.0000E+00	0	2
1.995262E-01	0.0000E+00	0.0000E+00	1.064250E+02	1.7778E-01	-3.9149E-02	0.0000E+00	0	2
1.584893E-01	0.0000E+00	0.0000E+00	1.292790E+02	1.8410E-01	-3.5047E-02	0.0000E+00	0	2
1.258925E-01	0.0000E+00	0.0000E+00	1.579670E+02	1.8908E-01	-3.0721E-02	0.0000E+00	0	2
1.000000E-01	0.0000E+00	0.0000E+00	1.943890E+02	1.9262E-01	-2.7059E-02	0.0000E+00	0	2
7.943282E-02	0.0000E+00	0.0000E+00	2.400520E+02	1.9509E-01	-2.4028E-02	0.0000E+00	0	2
6.309573E-02	0.0000E+00	0.0000E+00	2.973390E+02	1.9707E-01	-2.2036E-02	0.0000E+00	0	2
5.011872E-02	0.0000E+00	0.0000E+00	3.692660E+02	1.9945E-01	-1.9800E-02	0.0000E+00	0	2
3.981072E-02	0.0000E+00	0.0000E+00	4.596210E+02	2.0118E-01	-1.9037E-02	0.0000E+00	0	2
3.162277E-02	0.0000E+00	0.0000E+00	5.731810E+02	2.0236E-01	-1.8506E-02	0.0000E+00	0	2
2.511887E-02	0.0000E+00	0.0000E+00	7.159550E+02	2.0300E-01	-1.8098E-02	0.0000E+00	0	2
1.995262E-02	0.0000E+00	0.0000E+00	8.954960E+02	2.0476E-01	-1.9066E-02	0.0000E+00	0	2
1.584893E-02	0.0000E+00	0.0000E+00	1.121340E+03	2.0704E-01	-2.1070E-02	0.0000E+00	0	2
1.258925E-02	0.0000E+00	0.0000E+00	1.405464E+03	2.0833E-01	-2.2603E-02	0.0000E+00	0	2
1.000000E-02	0.0000E+00	0.0000E+00	1.763466E+03	2.0970E-01	-2.5265E-02	0.0000E+00	0	2
