ZPLOT2 ASCII
  Measured Data, VersaStudio:   2.60.6.0
  Experiment Type:            Sweep Frequency, Control Voltage
  Date:                       8-24-2020
  Time:                       11:45:36
  Open Circuit Potential (V): 0
  Begin User Comments:        0
  End User Comments:          0
  Begin Experiment:           0
  End Experiment:             0
  Begin Pstat/Gstat:          VersaSTAT3
  End Pstat/Gstat:            VersaSTAT3
  Begin Analyzer:             0
  End Analyzer:               0
  Begin Information:          Cell Information
    Surface Area:             1
    Density:                  0
    Weight:                   0
    Polarity:                 0
    PolarityI:                0
    Corrosion Unit Type:      0
    Reference Type:           0
    Reference Potential:      0
    User-Defined Potential:   0
    Stern-Geary:              26
  End Information:            Cell Information
  Null Configuration:         0,3,0,1,100000,0.1
  Data Points:                60
  Freq(Hz)	Ampl	Bias	Time(Sec)	Z'(a)	Z''(b)	GD	Err	Range
End Comments
1.000000E+04	0.0000E+00	0.0000E+00	5.559000E+00	8.5415E-02	2.4805E-02	0.0000E+00	0	2
7.943282E+03	0.0000E+00	0.0000E+00	5.825000E+00	8.4289E-02	1.9229E-02	0.0000E+00	0	2
6.309573E+03	0.0000E+00	0.0000E+00	6.114000E+00	8.4098E-02	1.5218E-02	0.0000E+00	0	2
5.011873E+03	0.0000E+00	0.0000E+00	6.386000E+00	8.3738E-02	1.1747E-02	0.0000E+00	0	2
3.981072E+03	0.0000E+00	0.0000E+00	6.654000E+00	8.3551E-02	8.7678E-03	0.0000E+00	0	2
3.162278E+03	0.0000E+00	0.0000E+00	6.946000E+00	8.3701E-02	6.5672E-03	0.0000E+00	0	2
2.511886E+03	0.0000E+00	0.0000E+00	7.218000E+00	8.3924E-02	4.4619E-03	0.0000E+00	0	2
1.995262E+03	0.0000E+00	0.0000E+00	7.545000E+00	8.4193E-02	2.9692E-03	0.0000E+00	0	2
1.584893E+03	0.0000E+00	0.0000E+00	7.951000E+00	8.4340E-02	1.5811E-03	0.0000E+00	0	2
1.258925E+03	0.0000E+00	0.0000E+00	8.301000E+00	8.4741E-02	5.2184E-04	0.0000E+00	0	2
7.943282E+02	0.0000E+00	0.0000E+00	8.901000E+00	8.5586E-02	-1.2205E-03	0.0000E+00	0	2
6.309573E+02	0.0000E+00	0.0000E+00	9.184000E+00	8.6279E-02	-2.1689E-03	0.0000E+00	0	2
5.011872E+02	0.0000E+00	0.0000E+00	9.516000E+00	8.6386E-02	-2.5298E-03	0.0000E+00	0	2
3.981072E+02	0.0000E+00	0.0000E+00	9.816000E+00	8.7388E-02	-2.6765E-03	0.0000E+00	0	2
3.162278E+02	0.0000E+00	0.0000E+00	1.009600E+01	8.7381E-02	-3.1822E-03	0.0000E+00	0	2
2.511886E+02	0.0000E+00	0.0000E+00	1.047400E+01	8.8336E-02	-3.5264E-03	0.0000E+00	0	2
1.995262E+02	0.0000E+00	0.0000E+00	1.077100E+01	8.9001E-02	-4.1612E-03	0.0000E+00	0	2
1.584893E+02	0.0000E+00	0.0000E+00	1.108200E+01	9.0001E-02	-4.3096E-03	0.0000E+00	0	2
1.258925E+02	0.0000E+00	0.0000E+00	1.146900E+01	9.0327E-02	-4.2150E-03	0.0000E+00	0	2
1.000000E+02	0.0000E+00	0.0000E+00	1.182600E+01	9.1498E-02	-4.4741E-03	0.0000E+00	0	2
7.943282E+01	0.0000E+00	0.0000E+00	1.225600E+01	9.2243E-02	-4.9585E-03	0.0000E+00	0	2
6.309573E+01	0.0000E+00	0.0000E+00	1.261200E+01	9.2781E-02	-4.9629E-03	0.0000E+00	0	2
5.011872E+01	0.0000E+00	0.0000E+00	1.299300E+01	9.3469E-02	-5.2454E-03	0.0000E+00	0	2
3.981072E+01	0.0000E+00	0.0000E+00	1.341800E+01	9.4148E-02	-5.3428E-03	0.0000E+00	0	2
3.162278E+01	0.0000E+00	0.0000E+00	1.377500E+01	9.4985E-02	-5.5323E-03	0.0000E+00	0	2
2.511886E+01	0.0000E+00	0.0000E+00	1.415800E+01	9.4859E-02	-5.5312E-03	0.0000E+00	0	2
1.995262E+01	0.0000E+00	0.0000E+00	1.458600E+01	9.5867E-02	-6.3969E-03	0.0000E+00	0	2
1.584893E+01	0.0000E+00	0.0000E+00	1.505400E+01	9.7095E-02	-6.4245E-03	0.0000E+00	0	2
1.258925E+01	0.0000E+00	0.0000E+00	1.558200E+01	9.7447E-02	-7.2392E-03	0.0000E+00	0	2
1.000000E+01	0.0000E+00	0.0000E+00	1.618100E+01	9.7926E-02	-7.6868E-03	0.0000E+00	0	2
7.943282E+00	0.0000E+00	0.0000E+00	1.687300E+01	9.8623E-02	-8.5013E-03	0.0000E+00	0	2
6.309574E+00	0.0000E+00	0.0000E+00	1.768800E+01	9.8997E-02	-9.5072E-03	0.0000E+00	0	2
5.011872E+00	0.0000E+00	0.0000E+00	1.865000E+01	9.9913E-02	-1.1367E-02	0.0000E+00	0	2
3.981072E+00	0.0000E+00	0.0000E+00	1.979500E+01	1.0069E-01	-1.3656E-02	0.0000E+00	0	2
3.162278E+00	0.0000E+00	0.0000E+00	2.117600E+01	1.0200E-01	-1.5891E-02	0.0000E+00	0	2
2.511886E+00	0.0000E+00	0.0000E+00	2.285700E+01	1.0385E-01	-1.9334E-02	0.0000E+00	0	2
1.995262E+00	0.0000E+00	0.0000E+00	2.490100E+01	1.0567E-01	-2.2517E-02	0.0000E+00	0	2
1.584893E+00	0.0000E+00	0.0000E+00	2.741700E+01	1.0881E-01	-2.6179E-02	0.0000E+00	0	2
1.258925E+00	0.0000E+00	0.0000E+00	3.052200E+01	1.1308E-01	-3.0591E-02	0.0000E+00	0	2
1.000000E+00	0.0000E+00	0.0000E+00	3.444100E+01	1.1778E-01	-3.4831E-02	0.0000E+00	0	2
7.943282E-01	0.0000E+00	0.0000E+00	3.927800E+01	1.2449E-01	-3.9242E-02	0.0000E+00	0	2
6.309574E-01	0.0000E+00	0.0000E+00	4.527800E+01	1.3217E-01	-4.2988E-02	0.0000E+00	0	2
5.011872E-01	0.0000E+00	0.0000E+00	5.273800E+01	1.4116E-01	-4.4953E-02	0.0000E+00	0	2
3.981072E-01	0.0000E+00	0.0000E+00	6.204200E+01	1.5130E-01	-4.6024E-02	0.0000E+00	0	2
3.162278E-01	0.0000E+00	0.0000E+00	7.366700E+01	1.6001E-01	-4.4849E-02	0.0000E+00	0	2
2.511886E-01	0.0000E+00	0.0000E+00	8.821500E+01	1.6949E-01	-4.2072E-02	0.0000E+00	0	2
1.995262E-01	0.0000E+00	0.0000E+00	1.064380E+02	1.7665E-01	-3.8358E-02	0.0000E+00	0	2
1.584893E-01	0.0000E+00	0.0000E+00	1.292940E+02	1.8264E-01	-3.4953E-02	0.0000E+00	0	2
1.258925E-01	0.0000E+00	0.0000E+00	1.579830E+02	1.8753E-01	-3.0225E-02	0.0000E+00	0	2
1.000000E-01	0.0000E+00	0.0000E+00	1.944040E+02	1.9097E-01	-2.6783E-02	0.0000E+00	0	2
7.943282E-02	0.0000E+00	0.0000E+00	2.400650E+02	1.9352E-01	-2.3577E-02	0.0000E+00	0	2
6.309573E-02	0.0000E+00	0.0000E+00	2.973530E+02	1.9590E-01	-2.1122E-02	0.0000E+00	0	2
5.011872E-02	0.0000E+00	0.0000E+00	3.692840E+02	1.9709E-01	-1.9679E-02	0.0000E+00	0	2
3.981072E-02	0.0000E+00	0.0000E+00	4.596400E+02	1.9901E-01	-1.8880E-02	0.0000E+00	0	2
3.162277E-02	0.0000E+00	0.0000E+00	5.731960E+02	2.0019E-01	-1.8045E-02	0.0000E+00	0	2
2.511887E-02	0.0000E+00	0.0000E+00	7.159670E+02	2.0071E-01	-1.7861E-02	0.0000E+00	0	2
1.995262E-02	0.0000E+00	0.0000E+00	8.955130E+02	2.0240E-01	-1.9307E-02	0.0000E+00	0	2
1.584893E-02	0.0000E+00	0.0000E+00	1.121353E+03	2.0411E-01	-2.0344E-02	0.0000E+00	0	2
1.258925E-02	0.0000E+00	0.0000E+00	1.405484E+03	2.0566E-01	-2.2283E-02	0.0000E+00	0	2
1.000000E-02	0.0000E+00	0.0000E+00	1.763487E+03	2.0886E-01	-2.4905E-02	0.0000E+00	0	2
