ZPLOT2 ASCII
  Measured Data, VersaStudio:   2.60.6.0
  Experiment Type:            Sweep Frequency, Control Voltage
  Date:                       8-24-2020
  Time:                       12:10:32
  Open Circuit Potential (V): 0
  Begin User Comments:        0
  End User Comments:          0
  Begin Experiment:           0
  End Experiment:             0
  Begin Pstat/Gstat:          VersaSTAT3
  End Pstat/Gstat:            VersaSTAT3
  Begin Analyzer:             0
  End Analyzer:               0
  Begin Information:          Cell Information
    Surface Area:             1
    Density:                  0
    Weight:                   0
    Polarity:                 0
    PolarityI:                0
    Corrosion Unit Type:      0
    Reference Type:           0
    Reference Potential:      0
    User-Defined Potential:   0
    Stern-Geary:              26
  End Information:            Cell Information
  Null Configuration:         0,3,0,1,100000,0.1
  Data Points:                59
  Freq(Hz)	Ampl	Bias	Time(Sec)	Z'(a)	Z''(b)	GD	Err	Range
End Comments
1.000000E+04	0.0000E+00	0.0000E+00	5.568000E+00	8.4660E-02	2.4707E-02	0.0000E+00	0	2
7.943282E+03	0.0000E+00	0.0000E+00	5.834000E+00	8.3810E-02	1.9278E-02	0.0000E+00	0	2
6.309573E+03	0.0000E+00	0.0000E+00	6.120000E+00	8.3483E-02	1.5446E-02	0.0000E+00	0	2
5.011873E+03	0.0000E+00	0.0000E+00	6.396000E+00	8.3297E-02	1.1797E-02	0.0000E+00	0	2
3.981072E+03	0.0000E+00	0.0000E+00	6.664000E+00	8.3121E-02	9.1297E-03	0.0000E+00	0	2
3.162278E+03	0.0000E+00	0.0000E+00	6.955000E+00	8.3093E-02	6.8131E-03	0.0000E+00	0	2
2.511886E+03	0.0000E+00	0.0000E+00	7.229000E+00	8.3318E-02	4.7962E-03	0.0000E+00	0	2
1.995262E+03	0.0000E+00	0.0000E+00	7.496000E+00	8.3514E-02	3.3356E-03	0.0000E+00	0	2
1.584893E+03	0.0000E+00	0.0000E+00	7.838000E+00	8.3873E-02	1.7808E-03	0.0000E+00	0	2
1.258925E+03	0.0000E+00	0.0000E+00	8.258000E+00	8.4335E-02	6.3011E-04	0.0000E+00	0	2
7.943282E+02	0.0000E+00	0.0000E+00	8.857000E+00	8.5052E-02	-1.3699E-03	0.0000E+00	0	2
6.309573E+02	0.0000E+00	0.0000E+00	9.139000E+00	8.5894E-02	-1.9633E-03	0.0000E+00	0	2
5.011872E+02	0.0000E+00	0.0000E+00	9.470000E+00	8.6308E-02	-2.4104E-03	0.0000E+00	0	2
3.981072E+02	0.0000E+00	0.0000E+00	9.768000E+00	8.6722E-02	-2.8689E-03	0.0000E+00	0	2
2.511886E+02	0.0000E+00	0.0000E+00	1.043000E+01	8.7547E-02	-3.3756E-03	0.0000E+00	0	2
1.995262E+02	0.0000E+00	0.0000E+00	1.073300E+01	8.8337E-02	-3.9105E-03	0.0000E+00	0	2
1.584893E+02	0.0000E+00	0.0000E+00	1.104600E+01	8.9080E-02	-3.9687E-03	0.0000E+00	0	2
1.258925E+02	0.0000E+00	0.0000E+00	1.143400E+01	8.9842E-02	-4.3285E-03	0.0000E+00	0	2
1.000000E+02	0.0000E+00	0.0000E+00	1.178800E+01	9.0705E-02	-4.5933E-03	0.0000E+00	0	2
7.943282E+01	0.0000E+00	0.0000E+00	1.222000E+01	9.1065E-02	-4.8563E-03	0.0000E+00	0	2
6.309573E+01	0.0000E+00	0.0000E+00	1.257400E+01	9.1798E-02	-4.9620E-03	0.0000E+00	0	2
5.011872E+01	0.0000E+00	0.0000E+00	1.295900E+01	9.2431E-02	-4.9781E-03	0.0000E+00	0	2
3.981072E+01	0.0000E+00	0.0000E+00	1.337800E+01	9.3576E-02	-5.4588E-03	0.0000E+00	0	2
3.162278E+01	0.0000E+00	0.0000E+00	1.373400E+01	9.4318E-02	-5.4819E-03	0.0000E+00	0	2
2.511886E+01	0.0000E+00	0.0000E+00	1.411800E+01	9.4748E-02	-5.6465E-03	0.0000E+00	0	2
1.995262E+01	0.0000E+00	0.0000E+00	1.453900E+01	9.5479E-02	-6.1591E-03	0.0000E+00	0	2
1.584893E+01	0.0000E+00	0.0000E+00	1.500700E+01	9.5969E-02	-6.2367E-03	0.0000E+00	0	2
1.258925E+01	0.0000E+00	0.0000E+00	1.553500E+01	9.6879E-02	-6.6781E-03	0.0000E+00	0	2
1.000000E+01	0.0000E+00	0.0000E+00	1.613800E+01	9.7454E-02	-7.6716E-03	0.0000E+00	0	2
7.943282E+00	0.0000E+00	0.0000E+00	1.683400E+01	9.7956E-02	-8.4565E-03	0.0000E+00	0	2
6.309574E+00	0.0000E+00	0.0000E+00	1.764500E+01	9.8589E-02	-1.0014E-02	0.0000E+00	0	2
5.011872E+00	0.0000E+00	0.0000E+00	1.860700E+01	9.9178E-02	-1.1260E-02	0.0000E+00	0	2
3.981072E+00	0.0000E+00	0.0000E+00	1.975400E+01	1.0016E-01	-1.3333E-02	0.0000E+00	0	2
3.162278E+00	0.0000E+00	0.0000E+00	2.114100E+01	1.0161E-01	-1.5810E-02	0.0000E+00	0	2
2.511886E+00	0.0000E+00	0.0000E+00	2.281900E+01	1.0328E-01	-1.8835E-02	0.0000E+00	0	2
1.995262E+00	0.0000E+00	0.0000E+00	2.486500E+01	1.0520E-01	-2.2195E-02	0.0000E+00	0	2
1.584893E+00	0.0000E+00	0.0000E+00	2.737900E+01	1.0847E-01	-2.6692E-02	0.0000E+00	0	2
1.258925E+00	0.0000E+00	0.0000E+00	3.048500E+01	1.1246E-01	-3.0706E-02	0.0000E+00	0	2
1.000000E+00	0.0000E+00	0.0000E+00	3.440100E+01	1.1712E-01	-3.5244E-02	0.0000E+00	0	2
7.943282E-01	0.0000E+00	0.0000E+00	3.923300E+01	1.2367E-01	-3.9337E-02	0.0000E+00	0	2
6.309574E-01	0.0000E+00	0.0000E+00	4.523100E+01	1.3155E-01	-4.3297E-02	0.0000E+00	0	2
5.011872E-01	0.0000E+00	0.0000E+00	5.269000E+01	1.4080E-01	-4.4966E-02	0.0000E+00	0	2
3.981072E-01	0.0000E+00	0.0000E+00	6.200100E+01	1.5027E-01	-4.5906E-02	0.0000E+00	0	2
3.162278E-01	0.0000E+00	0.0000E+00	7.363300E+01	1.5964E-01	-4.4773E-02	0.0000E+00	0	2
2.511886E-01	0.0000E+00	0.0000E+00	8.818100E+01	1.6846E-01	-4.2076E-02	0.0000E+00	0	2
1.995262E-01	0.0000E+00	0.0000E+00	1.064050E+02	1.7570E-01	-3.8573E-02	0.0000E+00	0	2
1.584893E-01	0.0000E+00	0.0000E+00	1.292590E+02	1.8166E-01	-3.4295E-02	0.0000E+00	0	2
1.258925E-01	0.0000E+00	0.0000E+00	1.579430E+02	1.8633E-01	-3.0744E-02	0.0000E+00	0	2
1.000000E-01	0.0000E+00	0.0000E+00	1.943630E+02	1.9024E-01	-2.6475E-02	0.0000E+00	0	2
7.943282E-02	0.0000E+00	0.0000E+00	2.400240E+02	1.9275E-01	-2.3657E-02	0.0000E+00	0	2
6.309573E-02	0.0000E+00	0.0000E+00	2.973130E+02	1.9497E-01	-2.1426E-02	0.0000E+00	0	2
5.011872E-02	0.0000E+00	0.0000E+00	3.692410E+02	1.9661E-01	-1.9457E-02	0.0000E+00	0	2
3.981072E-02	0.0000E+00	0.0000E+00	4.595950E+02	1.9767E-01	-1.8367E-02	0.0000E+00	0	2
3.162277E-02	0.0000E+00	0.0000E+00	5.731510E+02	1.9917E-01	-1.8316E-02	0.0000E+00	0	2
2.511887E-02	0.0000E+00	0.0000E+00	7.159240E+02	2.0059E-01	-1.8249E-02	0.0000E+00	0	2
1.995262E-02	0.0000E+00	0.0000E+00	8.954740E+02	2.0189E-01	-1.9305E-02	0.0000E+00	0	2
1.584893E-02	0.0000E+00	0.0000E+00	1.121318E+03	2.0376E-01	-2.0472E-02	0.0000E+00	0	2
1.258925E-02	0.0000E+00	0.0000E+00	1.405446E+03	2.0587E-01	-2.2404E-02	0.0000E+00	0	2
1.000000E-02	0.0000E+00	0.0000E+00	1.763449E+03	2.0805E-01	-2.4705E-02	0.0000E+00	0	2
