ZPLOT2 ASCII
  Measured Data, VersaStudio:   2.60.6.0
  Experiment Type:            Sweep Frequency, Control Voltage
  Date:                       8-24-2020
  Time:                       13:28:56
  Open Circuit Potential (V): 0
  Begin User Comments:        0
  End User Comments:          0
  Begin Experiment:           0
  End Experiment:             0
  Begin Pstat/Gstat:          VersaSTAT3
  End Pstat/Gstat:            VersaSTAT3
  Begin Analyzer:             0
  End Analyzer:               0
  Begin Information:          Cell Information
    Surface Area:             1
    Density:                  0
    Weight:                   0
    Polarity:                 0
    PolarityI:                0
    Corrosion Unit Type:      0
    Reference Type:           0
    Reference Potential:      0
    User-Defined Potential:   0
    Stern-Geary:              26
  End Information:            Cell Information
  Null Configuration:         0,3,0,1,100000,0.1
  Data Points:                59
  Freq(Hz)	Ampl	Bias	Time(Sec)	Z'(a)	Z''(b)	GD	Err	Range
End Comments
1.000000E+04	0.0000E+00	0.0000E+00	5.562000E+00	8.4402E-02	2.4826E-02	0.0000E+00	0	2
7.943282E+03	0.0000E+00	0.0000E+00	5.828000E+00	8.3655E-02	1.9523E-02	0.0000E+00	0	2
6.309573E+03	0.0000E+00	0.0000E+00	6.115000E+00	8.3189E-02	1.5491E-02	0.0000E+00	0	2
5.011873E+03	0.0000E+00	0.0000E+00	6.389000E+00	8.2911E-02	1.1926E-02	0.0000E+00	0	2
3.981072E+03	0.0000E+00	0.0000E+00	6.657000E+00	8.2950E-02	9.1422E-03	0.0000E+00	0	2
3.162278E+03	0.0000E+00	0.0000E+00	6.946000E+00	8.2972E-02	7.0090E-03	0.0000E+00	0	2
2.511886E+03	0.0000E+00	0.0000E+00	7.221000E+00	8.3074E-02	4.8295E-03	0.0000E+00	0	2
1.995262E+03	0.0000E+00	0.0000E+00	7.486000E+00	8.3252E-02	3.2756E-03	0.0000E+00	0	2
1.584893E+03	0.0000E+00	0.0000E+00	7.829000E+00	8.3667E-02	1.8581E-03	0.0000E+00	0	2
1.258925E+03	0.0000E+00	0.0000E+00	8.177000E+00	8.3960E-02	6.6366E-04	0.0000E+00	0	2
7.943282E+02	0.0000E+00	0.0000E+00	8.768000E+00	8.4957E-02	-1.1588E-03	0.0000E+00	0	2
6.309573E+02	0.0000E+00	0.0000E+00	9.049000E+00	8.5549E-02	-1.8505E-03	0.0000E+00	0	2
5.011872E+02	0.0000E+00	0.0000E+00	9.383000E+00	8.5820E-02	-2.3104E-03	0.0000E+00	0	2
3.981072E+02	0.0000E+00	0.0000E+00	9.682000E+00	8.6298E-02	-2.7418E-03	0.0000E+00	0	2
3.162278E+02	0.0000E+00	0.0000E+00	9.963000E+00	8.7105E-02	-3.1496E-03	0.0000E+00	0	2
2.511886E+02	0.0000E+00	0.0000E+00	1.034100E+01	8.7817E-02	-3.4933E-03	0.0000E+00	0	2
1.995262E+02	0.0000E+00	0.0000E+00	1.064100E+01	8.8269E-02	-3.9810E-03	0.0000E+00	0	2
1.584893E+02	0.0000E+00	0.0000E+00	1.095000E+01	8.9013E-02	-4.1619E-03	0.0000E+00	0	2
1.258925E+02	0.0000E+00	0.0000E+00	1.134100E+01	8.9635E-02	-4.2639E-03	0.0000E+00	0	2
1.000000E+02	0.0000E+00	0.0000E+00	1.169500E+01	9.0108E-02	-4.6031E-03	0.0000E+00	0	2
7.943282E+01	0.0000E+00	0.0000E+00	1.212300E+01	9.0925E-02	-4.6534E-03	0.0000E+00	0	2
6.309573E+01	0.0000E+00	0.0000E+00	1.247900E+01	9.1666E-02	-5.0318E-03	0.0000E+00	0	2
5.011872E+01	0.0000E+00	0.0000E+00	1.286400E+01	9.2611E-02	-5.0901E-03	0.0000E+00	0	2
3.981072E+01	0.0000E+00	0.0000E+00	1.328600E+01	9.3285E-02	-5.2485E-03	0.0000E+00	0	2
3.162278E+01	0.0000E+00	0.0000E+00	1.364000E+01	9.4147E-02	-5.3627E-03	0.0000E+00	0	2
2.511886E+01	0.0000E+00	0.0000E+00	1.402400E+01	9.4917E-02	-5.6604E-03	0.0000E+00	0	2
1.995262E+01	0.0000E+00	0.0000E+00	1.444700E+01	9.5079E-02	-6.1155E-03	0.0000E+00	0	2
1.258925E+01	0.0000E+00	0.0000E+00	1.544400E+01	9.6434E-02	-6.9657E-03	0.0000E+00	0	2
1.000000E+01	0.0000E+00	0.0000E+00	1.604500E+01	9.7142E-02	-7.5286E-03	0.0000E+00	0	2
7.943282E+00	0.0000E+00	0.0000E+00	1.673500E+01	9.7766E-02	-8.3523E-03	0.0000E+00	0	2
6.309574E+00	0.0000E+00	0.0000E+00	1.755000E+01	9.8291E-02	-9.5821E-03	0.0000E+00	0	2
5.011872E+00	0.0000E+00	0.0000E+00	1.851200E+01	9.9162E-02	-1.1138E-02	0.0000E+00	0	2
3.981072E+00	0.0000E+00	0.0000E+00	1.966000E+01	9.9933E-02	-1.3481E-02	0.0000E+00	0	2
3.162278E+00	0.0000E+00	0.0000E+00	2.104200E+01	1.0120E-01	-1.5782E-02	0.0000E+00	0	2
2.511886E+00	0.0000E+00	0.0000E+00	2.271600E+01	1.0291E-01	-1.8995E-02	0.0000E+00	0	2
1.995262E+00	0.0000E+00	0.0000E+00	2.476400E+01	1.0521E-01	-2.2382E-02	0.0000E+00	0	2
1.584893E+00	0.0000E+00	0.0000E+00	2.728000E+01	1.0806E-01	-2.6531E-02	0.0000E+00	0	2
1.258925E+00	0.0000E+00	0.0000E+00	3.038700E+01	1.1183E-01	-3.0715E-02	0.0000E+00	0	2
1.000000E+00	0.0000E+00	0.0000E+00	3.430200E+01	1.1688E-01	-3.5235E-02	0.0000E+00	0	2
7.943282E-01	0.0000E+00	0.0000E+00	3.913600E+01	1.2359E-01	-3.9483E-02	0.0000E+00	0	2
6.309574E-01	0.0000E+00	0.0000E+00	4.513100E+01	1.3131E-01	-4.2982E-02	0.0000E+00	0	2
5.011872E-01	0.0000E+00	0.0000E+00	5.258800E+01	1.4073E-01	-4.5355E-02	0.0000E+00	0	2
3.981072E-01	0.0000E+00	0.0000E+00	6.189300E+01	1.4994E-01	-4.5990E-02	0.0000E+00	0	2
3.162278E-01	0.0000E+00	0.0000E+00	7.352000E+01	1.5978E-01	-4.4822E-02	0.0000E+00	0	2
2.511886E-01	0.0000E+00	0.0000E+00	8.806700E+01	1.6801E-01	-4.1873E-02	0.0000E+00	0	2
1.995262E-01	0.0000E+00	0.0000E+00	1.062940E+02	1.7577E-01	-3.8262E-02	0.0000E+00	0	2
1.584893E-01	0.0000E+00	0.0000E+00	1.291480E+02	1.8176E-01	-3.4364E-02	0.0000E+00	0	2
1.258925E-01	0.0000E+00	0.0000E+00	1.578330E+02	1.8619E-01	-3.0694E-02	0.0000E+00	0	2
1.000000E-01	0.0000E+00	0.0000E+00	1.942530E+02	1.8965E-01	-2.6842E-02	0.0000E+00	0	2
7.943282E-02	0.0000E+00	0.0000E+00	2.399110E+02	1.9259E-01	-2.3864E-02	0.0000E+00	0	2
6.309573E-02	0.0000E+00	0.0000E+00	2.971990E+02	1.9418E-01	-2.1451E-02	0.0000E+00	0	2
5.011872E-02	0.0000E+00	0.0000E+00	3.691240E+02	1.9629E-01	-1.9531E-02	0.0000E+00	0	2
3.981072E-02	0.0000E+00	0.0000E+00	4.594810E+02	1.9814E-01	-1.8357E-02	0.0000E+00	0	2
3.162277E-02	0.0000E+00	0.0000E+00	5.730420E+02	1.9938E-01	-1.7705E-02	0.0000E+00	0	2
2.511887E-02	0.0000E+00	0.0000E+00	7.158120E+02	2.0054E-01	-1.8049E-02	0.0000E+00	0	2
1.995262E-02	0.0000E+00	0.0000E+00	8.953580E+02	2.0188E-01	-1.9068E-02	0.0000E+00	0	2
1.584893E-02	0.0000E+00	0.0000E+00	1.121204E+03	2.0343E-01	-2.0246E-02	0.0000E+00	0	2
1.258925E-02	0.0000E+00	0.0000E+00	1.405332E+03	2.0606E-01	-2.2363E-02	0.0000E+00	0	2
1.000000E-02	0.0000E+00	0.0000E+00	1.763337E+03	2.0839E-01	-2.4627E-02	0.0000E+00	0	2
