ZPLOT2 ASCII
  Measured Data, VersaStudio:   2.60.6.0
  Experiment Type:            Sweep Frequency, Control Voltage
  Date:                       8-24-2020
  Time:                       14:41:15
  Open Circuit Potential (V): 0
  Begin User Comments:        0
  End User Comments:          0
  Begin Experiment:           0
  End Experiment:             0
  Begin Pstat/Gstat:          VersaSTAT3
  End Pstat/Gstat:            VersaSTAT3
  Begin Analyzer:             0
  End Analyzer:               0
  Begin Information:          Cell Information
    Surface Area:             1
    Density:                  0
    Weight:                   0
    Polarity:                 0
    PolarityI:                0
    Corrosion Unit Type:      0
    Reference Type:           0
    Reference Potential:      0
    User-Defined Potential:   0
    Stern-Geary:              26
  End Information:            Cell Information
  Null Configuration:         0,3,0,1,100000,0.1
  Data Points:                59
  Freq(Hz)	Ampl	Bias	Time(Sec)	Z'(a)	Z''(b)	GD	Err	Range
End Comments
1.000000E+04	0.0000E+00	0.0000E+00	5.557000E+00	8.4139E-02	2.4909E-02	0.0000E+00	0	2
7.943282E+03	0.0000E+00	0.0000E+00	5.828000E+00	8.3264E-02	1.9609E-02	0.0000E+00	0	2
6.309573E+03	0.0000E+00	0.0000E+00	6.116000E+00	8.2791E-02	1.5582E-02	0.0000E+00	0	2
5.011873E+03	0.0000E+00	0.0000E+00	6.392000E+00	8.2618E-02	1.2068E-02	0.0000E+00	0	2
3.981072E+03	0.0000E+00	0.0000E+00	6.661000E+00	8.2561E-02	9.3339E-03	0.0000E+00	0	2
3.162278E+03	0.0000E+00	0.0000E+00	6.946000E+00	8.2518E-02	6.9717E-03	0.0000E+00	0	2
2.511886E+03	0.0000E+00	0.0000E+00	7.221000E+00	8.2784E-02	4.8923E-03	0.0000E+00	0	2
1.995262E+03	0.0000E+00	0.0000E+00	7.484000E+00	8.2927E-02	3.3036E-03	0.0000E+00	0	2
1.584893E+03	0.0000E+00	0.0000E+00	7.830000E+00	8.3266E-02	1.8223E-03	0.0000E+00	0	2
1.258925E+03	0.0000E+00	0.0000E+00	8.178000E+00	8.3684E-02	6.8407E-04	0.0000E+00	0	2
7.943282E+02	0.0000E+00	0.0000E+00	8.776000E+00	8.4550E-02	-1.0064E-03	0.0000E+00	0	2
6.309573E+02	0.0000E+00	0.0000E+00	9.058000E+00	8.5253E-02	-1.9233E-03	0.0000E+00	0	2
5.011872E+02	0.0000E+00	0.0000E+00	9.393000E+00	8.5569E-02	-2.4922E-03	0.0000E+00	0	2
3.981072E+02	0.0000E+00	0.0000E+00	9.695000E+00	8.6429E-02	-3.0194E-03	0.0000E+00	0	2
3.162278E+02	0.0000E+00	0.0000E+00	9.975000E+00	8.6853E-02	-3.1715E-03	0.0000E+00	0	2
2.511886E+02	0.0000E+00	0.0000E+00	1.034800E+01	8.7475E-02	-3.6172E-03	0.0000E+00	0	2
1.995262E+02	0.0000E+00	0.0000E+00	1.064800E+01	8.8086E-02	-3.8874E-03	0.0000E+00	0	2
1.584893E+02	0.0000E+00	0.0000E+00	1.095700E+01	8.8723E-02	-4.2340E-03	0.0000E+00	0	2
1.258925E+02	0.0000E+00	0.0000E+00	1.134900E+01	8.9486E-02	-4.1833E-03	0.0000E+00	0	2
1.000000E+02	0.0000E+00	0.0000E+00	1.170300E+01	9.0322E-02	-4.7285E-03	0.0000E+00	0	2
7.943282E+01	0.0000E+00	0.0000E+00	1.213400E+01	9.0995E-02	-4.9524E-03	0.0000E+00	0	2
6.309573E+01	0.0000E+00	0.0000E+00	1.249100E+01	9.1770E-02	-5.0448E-03	0.0000E+00	0	2
5.011872E+01	0.0000E+00	0.0000E+00	1.287400E+01	9.2316E-02	-5.0368E-03	0.0000E+00	0	2
3.981072E+01	0.0000E+00	0.0000E+00	1.330000E+01	9.3117E-02	-5.2751E-03	0.0000E+00	0	2
3.162278E+01	0.0000E+00	0.0000E+00	1.365200E+01	9.3647E-02	-5.6747E-03	0.0000E+00	0	2
2.511886E+01	0.0000E+00	0.0000E+00	1.403800E+01	9.4348E-02	-5.8227E-03	0.0000E+00	0	2
1.995262E+01	0.0000E+00	0.0000E+00	1.446500E+01	9.5078E-02	-5.9901E-03	0.0000E+00	0	2
1.584893E+01	0.0000E+00	0.0000E+00	1.493300E+01	9.5573E-02	-6.4571E-03	0.0000E+00	0	2
1.258925E+01	0.0000E+00	0.0000E+00	1.545900E+01	9.6477E-02	-6.8818E-03	0.0000E+00	0	2
1.000000E+01	0.0000E+00	0.0000E+00	1.605900E+01	9.6956E-02	-7.6937E-03	0.0000E+00	0	2
7.943282E+00	0.0000E+00	0.0000E+00	1.675300E+01	9.7652E-02	-8.6641E-03	0.0000E+00	0	2
6.309574E+00	0.0000E+00	0.0000E+00	1.756900E+01	9.8198E-02	-9.9479E-03	0.0000E+00	0	2
5.011872E+00	0.0000E+00	0.0000E+00	1.852900E+01	9.8959E-02	-1.1260E-02	0.0000E+00	0	2
3.981072E+00	0.0000E+00	0.0000E+00	1.967400E+01	9.9919E-02	-1.3413E-02	0.0000E+00	0	2
3.162278E+00	0.0000E+00	0.0000E+00	2.105800E+01	1.0122E-01	-1.6146E-02	0.0000E+00	0	2
2.511886E+00	0.0000E+00	0.0000E+00	2.273400E+01	1.0273E-01	-1.9070E-02	0.0000E+00	0	2
1.995262E+00	0.0000E+00	0.0000E+00	2.478300E+01	1.0495E-01	-2.2530E-02	0.0000E+00	0	2
1.584893E+00	0.0000E+00	0.0000E+00	2.729900E+01	1.0766E-01	-2.6637E-02	0.0000E+00	0	2
1.258925E+00	0.0000E+00	0.0000E+00	3.040300E+01	1.1167E-01	-3.0980E-02	0.0000E+00	0	2
1.000000E+00	0.0000E+00	0.0000E+00	3.431700E+01	1.1665E-01	-3.5719E-02	0.0000E+00	0	2
7.943282E-01	0.0000E+00	0.0000E+00	3.915400E+01	1.2310E-01	-4.0140E-02	0.0000E+00	0	2
6.309574E-01	0.0000E+00	0.0000E+00	4.515600E+01	1.3136E-01	-4.4025E-02	0.0000E+00	0	2
5.011872E-01	0.0000E+00	0.0000E+00	5.261900E+01	1.4057E-01	-4.6398E-02	0.0000E+00	0	2
3.981072E-01	0.0000E+00	0.0000E+00	6.192300E+01	1.5071E-01	-4.7241E-02	0.0000E+00	0	2
3.162278E-01	0.0000E+00	0.0000E+00	7.355000E+01	1.6068E-01	-4.6519E-02	0.0000E+00	0	2
2.511886E-01	0.0000E+00	0.0000E+00	8.809700E+01	1.6953E-01	-4.3832E-02	0.0000E+00	0	2
1.995262E-01	0.0000E+00	0.0000E+00	1.063230E+02	1.7717E-01	-4.0134E-02	0.0000E+00	0	2
1.584893E-01	0.0000E+00	0.0000E+00	1.291750E+02	1.8332E-01	-3.6080E-02	0.0000E+00	0	2
1.258925E-01	0.0000E+00	0.0000E+00	1.578590E+02	1.8852E-01	-3.1613E-02	0.0000E+00	0	2
1.000000E-01	0.0000E+00	0.0000E+00	1.942820E+02	1.9217E-01	-2.7818E-02	0.0000E+00	0	2
7.943282E-02	0.0000E+00	0.0000E+00	2.399410E+02	1.9498E-01	-2.4770E-02	0.0000E+00	0	2
6.309573E-02	0.0000E+00	0.0000E+00	2.972290E+02	1.9686E-01	-2.2190E-02	0.0000E+00	0	2
5.011872E-02	0.0000E+00	0.0000E+00	3.691570E+02	1.9890E-01	-1.9866E-02	0.0000E+00	0	2
3.162277E-02	0.0000E+00	0.0000E+00	5.730680E+02	2.0155E-01	-1.8340E-02	0.0000E+00	0	2
2.511887E-02	0.0000E+00	0.0000E+00	7.158400E+02	2.0250E-01	-1.8313E-02	0.0000E+00	0	2
1.995262E-02	0.0000E+00	0.0000E+00	8.953830E+02	2.0418E-01	-1.9141E-02	0.0000E+00	0	2
1.584893E-02	0.0000E+00	0.0000E+00	1.121228E+03	2.0554E-01	-2.0400E-02	0.0000E+00	0	2
1.258925E-02	0.0000E+00	0.0000E+00	1.405356E+03	2.0718E-01	-2.2847E-02	0.0000E+00	0	2
1.000000E-02	0.0000E+00	0.0000E+00	1.763358E+03	2.0912E-01	-2.4806E-02	0.0000E+00	0	2
