ZPLOT2 ASCII
  Measured Data, VersaStudio:   2.60.6.0
  Experiment Type:            Sweep Frequency, Control Voltage
  Date:                       8-24-2020
  Time:                       15:6:36
  Open Circuit Potential (V): 0
  Begin User Comments:        0
  End User Comments:          0
  Begin Experiment:           0
  End Experiment:             0
  Begin Pstat/Gstat:          VersaSTAT3
  End Pstat/Gstat:            VersaSTAT3
  Begin Analyzer:             0
  End Analyzer:               0
  Begin Information:          Cell Information
    Surface Area:             1
    Density:                  0
    Weight:                   0
    Polarity:                 0
    PolarityI:                0
    Corrosion Unit Type:      0
    Reference Type:           0
    Reference Potential:      0
    User-Defined Potential:   0
    Stern-Geary:              26
  End Information:            Cell Information
  Null Configuration:         0,3,0,1,100000,0.1
  Data Points:                58
  Freq(Hz)	Ampl	Bias	Time(Sec)	Z'(a)	Z''(b)	GD	Err	Range
End Comments
1.000000E+04	0.0000E+00	0.0000E+00	5.563000E+00	8.3804E-02	2.4865E-02	0.0000E+00	0	2
7.943282E+03	0.0000E+00	0.0000E+00	5.831000E+00	8.2935E-02	1.9480E-02	0.0000E+00	0	2
6.309573E+03	0.0000E+00	0.0000E+00	6.119000E+00	8.2464E-02	1.5598E-02	0.0000E+00	0	2
5.011873E+03	0.0000E+00	0.0000E+00	6.394000E+00	8.2319E-02	1.2067E-02	0.0000E+00	0	2
3.981072E+03	0.0000E+00	0.0000E+00	6.662000E+00	8.2244E-02	9.3427E-03	0.0000E+00	0	2
3.162278E+03	0.0000E+00	0.0000E+00	6.952000E+00	8.2307E-02	7.0766E-03	0.0000E+00	0	2
2.511886E+03	0.0000E+00	0.0000E+00	7.226000E+00	8.2457E-02	4.8049E-03	0.0000E+00	0	2
1.995262E+03	0.0000E+00	0.0000E+00	7.492000E+00	8.2550E-02	3.3500E-03	0.0000E+00	0	2
1.584893E+03	0.0000E+00	0.0000E+00	7.836000E+00	8.2877E-02	1.8360E-03	0.0000E+00	0	2
1.258925E+03	0.0000E+00	0.0000E+00	8.187000E+00	8.3337E-02	6.9940E-04	0.0000E+00	0	2
7.943282E+02	0.0000E+00	0.0000E+00	8.788000E+00	8.4337E-02	-1.1946E-03	0.0000E+00	0	2
6.309573E+02	0.0000E+00	0.0000E+00	9.071000E+00	8.4561E-02	-1.8606E-03	0.0000E+00	0	2
3.981072E+02	0.0000E+00	0.0000E+00	9.702000E+00	8.5501E-02	-2.9473E-03	0.0000E+00	0	2
3.162278E+02	0.0000E+00	0.0000E+00	9.983000E+00	8.6131E-02	-3.1540E-03	0.0000E+00	0	2
2.511886E+02	0.0000E+00	0.0000E+00	1.036100E+01	8.6538E-02	-3.5188E-03	0.0000E+00	0	2
1.995262E+02	0.0000E+00	0.0000E+00	1.065800E+01	8.7466E-02	-3.8738E-03	0.0000E+00	0	2
1.584893E+02	0.0000E+00	0.0000E+00	1.096800E+01	8.8269E-02	-4.0501E-03	0.0000E+00	0	2
1.258925E+02	0.0000E+00	0.0000E+00	1.135600E+01	8.9014E-02	-4.2882E-03	0.0000E+00	0	2
1.000000E+02	0.0000E+00	0.0000E+00	1.170800E+01	8.9701E-02	-4.4528E-03	0.0000E+00	0	2
7.943282E+01	0.0000E+00	0.0000E+00	1.213400E+01	9.0591E-02	-4.7262E-03	0.0000E+00	0	2
6.309573E+01	0.0000E+00	0.0000E+00	1.249200E+01	9.0924E-02	-4.8868E-03	0.0000E+00	0	2
5.011872E+01	0.0000E+00	0.0000E+00	1.287400E+01	9.1875E-02	-5.1795E-03	0.0000E+00	0	2
3.981072E+01	0.0000E+00	0.0000E+00	1.329600E+01	9.2775E-02	-5.2601E-03	0.0000E+00	0	2
3.162278E+01	0.0000E+00	0.0000E+00	1.365200E+01	9.3629E-02	-5.3310E-03	0.0000E+00	0	2
1.995262E+01	0.0000E+00	0.0000E+00	1.446700E+01	9.4826E-02	-5.9972E-03	0.0000E+00	0	2
1.584893E+01	0.0000E+00	0.0000E+00	1.493800E+01	9.5465E-02	-6.5584E-03	0.0000E+00	0	2
1.258925E+01	0.0000E+00	0.0000E+00	1.546600E+01	9.5757E-02	-7.0909E-03	0.0000E+00	0	2
1.000000E+01	0.0000E+00	0.0000E+00	1.606600E+01	9.6352E-02	-7.6926E-03	0.0000E+00	0	2
7.943282E+00	0.0000E+00	0.0000E+00	1.675900E+01	9.7052E-02	-8.5339E-03	0.0000E+00	0	2
6.309574E+00	0.0000E+00	0.0000E+00	1.757000E+01	9.7310E-02	-9.8529E-03	0.0000E+00	0	2
5.011872E+00	0.0000E+00	0.0000E+00	1.853400E+01	9.8251E-02	-1.1354E-02	0.0000E+00	0	2
3.981072E+00	0.0000E+00	0.0000E+00	1.968500E+01	9.9106E-02	-1.3458E-02	0.0000E+00	0	2
3.162278E+00	0.0000E+00	0.0000E+00	2.106700E+01	1.0035E-01	-1.5947E-02	0.0000E+00	0	2
2.511886E+00	0.0000E+00	0.0000E+00	2.274500E+01	1.0222E-01	-1.8870E-02	0.0000E+00	0	2
1.995262E+00	0.0000E+00	0.0000E+00	2.479600E+01	1.0410E-01	-2.2496E-02	0.0000E+00	0	2
1.584893E+00	0.0000E+00	0.0000E+00	2.731100E+01	1.0730E-01	-2.6580E-02	0.0000E+00	0	2
1.258925E+00	0.0000E+00	0.0000E+00	3.041800E+01	1.1121E-01	-3.0910E-02	0.0000E+00	0	2
1.000000E+00	0.0000E+00	0.0000E+00	3.433400E+01	1.1617E-01	-3.5395E-02	0.0000E+00	0	2
7.943282E-01	0.0000E+00	0.0000E+00	3.917000E+01	1.2272E-01	-3.9700E-02	0.0000E+00	0	2
6.309574E-01	0.0000E+00	0.0000E+00	4.516600E+01	1.3085E-01	-4.3438E-02	0.0000E+00	0	2
5.011872E-01	0.0000E+00	0.0000E+00	5.262400E+01	1.3996E-01	-4.5689E-02	0.0000E+00	0	2
3.981072E-01	0.0000E+00	0.0000E+00	6.193000E+01	1.4984E-01	-4.6751E-02	0.0000E+00	0	2
3.162278E-01	0.0000E+00	0.0000E+00	7.355800E+01	1.5955E-01	-4.5359E-02	0.0000E+00	0	2
2.511886E-01	0.0000E+00	0.0000E+00	8.810200E+01	1.6855E-01	-4.2920E-02	0.0000E+00	0	2
1.995262E-01	0.0000E+00	0.0000E+00	1.063210E+02	1.7551E-01	-3.9010E-02	0.0000E+00	0	2
1.584893E-01	0.0000E+00	0.0000E+00	1.291760E+02	1.8168E-01	-3.5056E-02	0.0000E+00	0	2
1.258925E-01	0.0000E+00	0.0000E+00	1.578610E+02	1.8646E-01	-3.1008E-02	0.0000E+00	0	2
1.000000E-01	0.0000E+00	0.0000E+00	1.942760E+02	1.9026E-01	-2.7198E-02	0.0000E+00	0	2
7.943282E-02	0.0000E+00	0.0000E+00	2.399330E+02	1.9295E-01	-2.3888E-02	0.0000E+00	0	2
6.309573E-02	0.0000E+00	0.0000E+00	2.972230E+02	1.9484E-01	-2.1507E-02	0.0000E+00	0	2
5.011872E-02	0.0000E+00	0.0000E+00	3.691540E+02	1.9674E-01	-1.9974E-02	0.0000E+00	0	2
3.981072E-02	0.0000E+00	0.0000E+00	4.595120E+02	1.9817E-01	-1.8522E-02	0.0000E+00	0	2
3.162277E-02	0.0000E+00	0.0000E+00	5.730710E+02	1.9945E-01	-1.8214E-02	0.0000E+00	0	2
2.511887E-02	0.0000E+00	0.0000E+00	7.158420E+02	2.0039E-01	-1.8458E-02	0.0000E+00	0	2
1.995262E-02	0.0000E+00	0.0000E+00	8.953880E+02	2.0150E-01	-1.8834E-02	0.0000E+00	0	2
1.584893E-02	0.0000E+00	0.0000E+00	1.121233E+03	2.0286E-01	-2.0474E-02	0.0000E+00	0	2
1.258925E-02	0.0000E+00	0.0000E+00	1.405358E+03	2.0419E-01	-2.2092E-02	0.0000E+00	0	2
1.000000E-02	0.0000E+00	0.0000E+00	1.763361E+03	2.0641E-01	-2.4557E-02	0.0000E+00	0	2
